name,type,start_time,duration,"mosi","miso"
"SPI","result",14.708506,0.005986,0x7E,0x00
"SPI","result",14.714892,0.005996,0x0B,0x00
"SPI","result",14.72131,0.005975,0x00,0x00
"SPI","result",14.727685,0.005995,0x00,0x00
"SPI","result",14.734082,0.005995,0x7E,0x00
"SPI","result",14.740478,0.005996,0x7F,0x00
"SPI","result",14.746874,0.00601,0xFF,0x00
"SPI","result",14.753271,0.005995,0xFF,0x00
"SPI","result",14.759667,0.005995,0xFF,0x00
"SPI","result",14.766063,0.005996,0xFF,0x00
"SPI","result",14.77246,0.005996,0xFF,0x00
"SPI","result",14.778856,0.005996,0xFF,0x00
"SPI","result",14.785253,0.005999,0xFF,0x00
"SPI","result",14.791649,0.005995,0xFF,0x00
"SPI","result",14.798046,0.005995,0xFF,0x00
"SPI","result",14.804442,0.005995,0xFF,0x00
"SPI","result",14.810838,0.005996,0xFF,0x00
"SPI","result",14.817234,0.005996,0xFF,0x00
"SPI","result",14.823631,0.005995,0xFF,0x00
"SPI","result",14.830028,0.005995,0xFF,0x00
"SPI","result",14.836424,0.005995,0xFF,0x00
"SPI","result",14.84282,0.005995,0xFF,0x00
"SPI","result",14.849217,0.005995,0xFF,0x00
"SPI","result",14.855613,0.005995,0xFF,0x00
"SPI","result",14.862009,0.005996,0xFF,0x00
"SPI","result",14.868405,0.005996,0xFF,0x00
"SPI","result",14.874802,0.005995,0xFF,0x00
"SPI","result",14.881198,0.005995,0xFF,0x00
"SPI","result",14.8876,0.00599,0xFF,0x00
"SPI","result",14.893991,0.005995,0xFF,0x00
"SPI","result",14.900387,0.005995,0xFF,0x00
"SPI","result",14.906784,0.005995,0xFF,0x00
"SPI","result",14.91318,0.005995,0xFF,0x00
"SPI","result",14.919576,0.006,0xFF,0x00
"SPI","result",14.925972,0.005996,0xFF,0x00
"SPI","result",14.932369,0.005995,0xFF,0x00
"SPI","result",14.938765,0.005996,0xFF,0x00
"SPI","result",14.945162,0.005995,0xFF,0x00
"SPI","result",14.951558,0.005995,0xFF,0x00
"SPI","result",14.957955,0.005995,0xFF,0x00
"SPI","result",14.964351,0.005995,0xFF,0x00
"SPI","result",14.970748,0.005995,0xFF,0x00
"SPI","result",14.977143,0.006003,0xFF,0x00
"SPI","result",14.98354,0.005995,0xFF,0x00
"SPI","result",14.989937,0.005995,0xFF,0x00
"SPI","result",14.996332,0.005996,0xFF,0x00
"SPI","result",15.002729,0.005995,0xFF,0x00
"SPI","result",15.009125,0.005996,0xFF,0x00
"SPI","result",15.015522,0.005995,0xFF,0x00
"SPI","result",15.021918,0.005995,0xFF,0x00
"SPI","result",15.028315,0.005994,0xFF,0x00
"SPI","result",15.034711,0.005995,0xFF,0x00
"SPI","result",15.041107,0.005996,0xFF,0x00
"SPI","result",15.047503,0.005996,0xFF,0x00
"SPI","result",15.0539,0.005998,0xFF,0x00
"SPI","result",15.060296,0.005996,0xFF,0x00
"SPI","result",15.066692,0.005996,0xFF,0x00
"SPI","result",15.073089,0.005995,0xFF,0x00
"SPI","result",15.079485,0.005995,0xFF,0x00
"SPI","result",15.085882,0.005995,0xFF,0x00
"SPI","result",15.092278,0.005995,0xFF,0x00
"SPI","result",15.098675,0.005995,0xFF,0x00
"SPI","result",15.10507,0.005996,0xFF,0x00
"SPI","result",15.111467,0.005995,0xFF,0x00
"SPI","result",15.117863,0.005996,0xFF,0x00
"SPI","result",15.124259,0.005996,0xFF,0x00
"SPI","result",15.130657,0.005995,0xFF,0x00
"SPI","result",15.137052,0.005996,0xFF,0x00
"SPI","result",15.143449,0.005995,0xFF,0x00
"SPI","result",15.149845,0.005996,0xFF,0x00
"SPI","result",15.156241,0.005996,0xFF,0x00
"SPI","result",15.162638,0.005996,0xFF,0x00
"SPI","result",15.169034,0.005996,0xFF,0x00
"SPI","result",15.175431,0.005996,0xFF,0x00
"SPI","result",15.181828,0.005994,0xFF,0x00
"SPI","result",15.188224,0.005998,0xFF,0x00
"SPI","result",15.194619,0.005996,0xFF,0x00
"SPI","result",15.201016,0.005995,0xFF,0x00
"SPI","result",15.207412,0.005996,0xFF,0x00
"SPI","result",15.213809,0.005996,0xFF,0x00
"SPI","result",15.220205,0.005996,0xFF,0x00
"SPI","result",15.226601,0.005996,0xFF,0x00
"SPI","result",15.232998,0.005995,0xFF,0x00
"SPI","result",15.239394,0.005996,0xFF,0x00
"SPI","result",15.245791,0.005995,0xFF,0x00
"SPI","result",15.252187,0.005995,0xFF,0x00
"SPI","result",15.258583,0.005996,0xFF,0x00
"SPI","result",15.264988,0.005987,0xFF,0x00
"SPI","result",15.271376,0.005995,0xFF,0x00
"SPI","result",15.277773,0.005995,0xFF,0x00
"SPI","result",15.284169,0.005995,0xFF,0x00
"SPI","result",15.290565,0.005996,0xFF,0x00
"SPI","result",15.296962,0.005995,0xFF,0x00
"SPI","result",15.303358,0.005995,0xFF,0x00
"SPI","result",15.309754,0.005996,0xFF,0x00
"SPI","result",15.316151,0.005995,0xFF,0x00
"SPI","result",15.322547,0.006,0xFF,0x00
"SPI","result",15.328942,0.005996,0xFF,0x00
"SPI","result",15.335339,0.005996,0xFF,0x00
"SPI","result",15.341736,0.005995,0xFF,0x00
"SPI","result",15.348132,0.005995,0xFF,0x00
"SPI","result",15.354529,0.005995,0xFF,0x00
"SPI","result",15.360925,0.005995,0xFF,0x00
"SPI","result",15.367322,0.005995,0xFF,0x00
"SPI","result",15.373718,0.005996,0xFF,0x00
"SPI","result",15.380114,0.005995,0xFF,0x00
"SPI","result",15.38651,0.005996,0xFF,0x00
"SPI","result",15.392907,0.005995,0xFF,0x00
"SPI","result",15.399304,0.005995,0xFF,0x00
"SPI","result",15.405703,0.005992,0xFF,0x00
"SPI","result",15.412096,0.005996,0xFF,0x00
"SPI","result",15.418492,0.006009,0xFF,0x00
"SPI","result",15.424889,0.005995,0xFF,0x00
"SPI","result",15.431284,0.005996,0xFF,0x00
"SPI","result",15.437681,0.005996,0xFF,0x00
"SPI","result",15.444078,0.005996,0xFF,0x00
"SPI","result",15.450474,0.005995,0xFF,0x00
"SPI","result",15.45687,0.005996,0xFF,0x00
"SPI","result",15.463267,0.005995,0xFF,0x00
"SPI","result",15.469663,0.005996,0xFF,0x00
"SPI","result",15.47606,0.005995,0xFF,0x00
"SPI","result",15.482456,0.005996,0xFF,0x00
"SPI","result",15.488852,0.005996,0xFF,0x00
"SPI","result",15.495248,0.005996,0xFF,0x00
"SPI","result",15.501645,0.005995,0xFF,0x00
"SPI","result",15.508041,0.005996,0xFF,0x00
"SPI","result",15.514438,0.005995,0xFF,0x00
"SPI","result",15.520834,0.005996,0xFF,0x00
"SPI","result",15.527231,0.005998,0xFF,0x00
"SPI","result",15.533626,0.005996,0xFF,0x00
"SPI","result",15.540023,0.005995,0xFF,0x00
"SPI","result",15.546419,0.005996,0xFF,0x00
"SPI","result",15.552816,0.005995,0xFF,0x00
"SPI","result",15.559213,0.005995,0xFF,0x00
"SPI","result",15.565609,0.005995,0xFF,0x00
"SPI","result",15.572005,0.005995,0xFF,0x00
"SPI","result",15.578402,0.005995,0xFF,0x00
"SPI","result",15.584797,0.005996,0xFF,0x00
"SPI","result",15.591195,0.005994,0xFF,0x00
"SPI","result",15.597591,0.005995,0xFF,0x00
"SPI","result",15.603987,0.005995,0xFF,0x00
"SPI","result",15.610383,0.005995,0xFF,0x00
"SPI","result",15.616779,0.006001,0xFF,0x00
"SPI","result",15.623176,0.005995,0xFF,0x00
"SPI","result",15.629572,0.005996,0xFF,0x00
"SPI","result",15.635968,0.005997,0xFF,0x00
"SPI","result",15.642365,0.005995,0xFF,0x00
"SPI","result",15.648761,0.005995,0xFF,0x00
"SPI","result",15.655158,0.005995,0xFF,0x00
"SPI","result",15.661554,0.005999,0xFF,0x00
"SPI","result",15.66795,0.005996,0xFF,0x00
"SPI","result",15.674347,0.005995,0xFF,0x00
"SPI","result",15.680743,0.005996,0xFF,0x00
"SPI","result",15.68714,0.005995,0xFF,0x00
"SPI","result",15.693536,0.005995,0xFF,0x00
"SPI","result",15.699932,0.005996,0xFF,0x00
"SPI","result",15.706329,0.005995,0xFF,0x00
"SPI","result",15.712725,0.005995,0xFF,0x00
"SPI","result",15.719121,0.005996,0xFF,0x00
"SPI","result",15.725518,0.005996,0xFF,0x00
"SPI","result",15.731921,0.005989,0xFF,0x00
"SPI","result",15.738309,0.005997,0xFF,0x00
"SPI","result",15.744707,0.005995,0xFF,0x00
"SPI","result",15.751103,0.005995,0xFF,0x00
"SPI","result",15.7575,0.005995,0xFF,0x00
"SPI","result",15.763896,0.005995,0xFF,0x00
"SPI","result",15.770292,0.005996,0xFF,0x00
"SPI","result",15.776689,0.005995,0xFF,0x00
"SPI","result",15.783085,0.005995,0xFF,0x00
"SPI","result",15.789481,0.005996,0xFF,0x00
"SPI","result",15.795878,0.005998,0xFF,0x00
"SPI","result",15.802274,0.005995,0xFF,0x00
"SPI","result",15.80867,0.005996,0xFF,0x00
"SPI","result",15.815067,0.005995,0xFF,0x00
"SPI","result",15.821463,0.005996,0xFF,0x00
"SPI","result",15.82786,0.005995,0xFF,0x00
"SPI","result",15.834273,0.005978,0xFF,0x00
"SPI","result",15.840651,0.005997,0xFF,0x00
"SPI","result",15.847048,0.005996,0xFF,0x00
"SPI","result",15.853445,0.005995,0xFF,0x00
"SPI","result",15.859842,0.005995,0xFF,0x00
"SPI","result",15.866237,0.005996,0xFF,0x00
"SPI","result",15.872634,0.005996,0xFF,0x00
"SPI","result",15.87903,0.005996,0xFF,0x00
"SPI","result",15.885427,0.005995,0xFF,0x00
"SPI","result",15.891823,0.005996,0xFF,0x00
"SPI","result",15.89822,0.005995,0xFF,0x00
"SPI","result",15.904616,0.005995,0xFF,0x00
"SPI","result",15.911014,0.005994,0xFF,0x00
"SPI","result",15.917408,0.005996,0xFF,0x00
"SPI","result",15.923805,0.005995,0xFF,0x00
"SPI","result",15.930202,0.005994,0xFF,0x00
"SPI","result",15.936598,0.005995,0xFF,0x00
"SPI","result",15.942993,0.005996,0xFF,0x00
"SPI","result",15.94939,0.005995,0xFF,0x00
"SPI","result",15.955787,0.005995,0xFF,0x00
"SPI","result",15.962183,0.005995,0xFF,0x00
"SPI","result",15.968579,0.005995,0xFF,0x00
"SPI","result",15.974976,0.005995,0xFF,0x00
"SPI","result",15.981372,0.005996,0xFF,0x00
"SPI","result",15.987768,0.005996,0xFF,0x00
"SPI","result",15.994165,0.005995,0xFF,0x00
"SPI","result",16.000561,0.005996,0xFF,0x00
"SPI","result",16.006958,0.005995,0xFF,0x00
"SPI","result",16.013358,0.005991,0xFF,0x00
"SPI","result",16.01975,0.005996,0xFF,0x00
"SPI","result",16.026147,0.006012,0xFF,0x00
"SPI","result",16.032543,0.005996,0xFF,0x00
"SPI","result",16.03894,0.006013,0xFF,0x00
"SPI","result",16.045335,0.005996,0xFF,0x00
"SPI","result",16.051732,0.005995,0xFF,0x00
"SPI","result",16.058129,0.005995,0xFF,0x00
"SPI","result",16.064525,0.005995,0xFF,0x00
"SPI","result",16.070921,0.005995,0xFF,0x00
"SPI","result",16.07733,0.005983,0xFF,0x00
"SPI","result",16.083714,0.005995,0xFF,0x00
"SPI","result",16.09011,0.005996,0xFF,0x00
"SPI","result",16.096506,0.005996,0xFF,0x00
"SPI","result",16.102903,0.005996,0xFF,0x00
"SPI","result",16.109299,0.005996,0xFF,0x00
"SPI","result",16.115695,0.005996,0xFF,0x00
"SPI","result",16.122092,0.005995,0xFF,0x00
"SPI","result",16.128488,0.005996,0xFF,0x00
"SPI","result",16.134885,0.005995,0xFF,0x00
"SPI","result",16.141282,0.005994,0xFF,0x00
"SPI","result",16.14768,0.005993,0xFF,0x00
"SPI","result",16.154074,0.005995,0xFF,0x00
"SPI","result",16.16047,0.005995,0xFF,0x00
"SPI","result",16.166866,0.005996,0xFF,0x00
"SPI","result",16.173263,0.006018,0xFF,0x00
"SPI","result",16.179659,0.006009,0xFF,0x00
"SPI","result",16.186056,0.005995,0xFF,0x00
"SPI","result",16.192457,0.005991,0xFF,0x00
"SPI","result",16.198849,0.005995,0xFF,0x00
"SPI","result",16.205245,0.005995,0xFF,0x00
"SPI","result",16.211641,0.005996,0xFF,0x00
"SPI","result",16.218038,0.005995,0xFF,0x00
"SPI","result",16.224452,0.005977,0xFF,0x00
"SPI","result",16.23083,0.005995,0xFF,0x00
"SPI","result",16.237227,0.005995,0xFF,0x00
"SPI","result",16.243623,0.005995,0xFF,0x00
"SPI","result",16.250018,0.005997,0xFF,0x00
"SPI","result",16.256416,0.006003,0xFF,0x00
"SPI","result",16.262812,0.005995,0xFF,0x00
"SPI","result",16.269208,0.005996,0xFF,0x00
"SPI","result",16.275605,0.005995,0xFF,0x00
"SPI","result",16.282004,0.005992,0xFF,0x00
"SPI","result",16.288397,0.005996,0xFF,0x00
"SPI","result",16.294794,0.005995,0xFF,0x00
"SPI","result",16.30119,0.005995,0xFF,0x00
"SPI","result",16.307586,0.005996,0xFF,0x00
"SPI","result",16.313983,0.005995,0xFF,0x00
"SPI","result",16.32038,0.005995,0xFF,0x00
"SPI","result",16.326776,0.005996,0xFF,0x00
"SPI","result",16.333172,0.005996,0xFF,0x00
"SPI","result",16.339568,0.005996,0xFF,0x00
"SPI","result",16.345964,0.005996,0xFF,0x00
"SPI","result",16.35236,0.005997,0xFF,0x00
"SPI","result",16.358757,0.005996,0xFF,0x00
"SPI","result",16.365154,0.005995,0xFF,0x00
"SPI","result",16.37155,0.005995,0xFF,0x00
"SPI","result",16.377946,0.005996,0xFF,0x00
"SPI","result",16.384343,0.005995,0xFF,0x00
"SPI","result",16.390739,0.005996,0xFF,0x00
"SPI","result",16.397136,0.005995,0xFF,0x00
"SPI","result",16.403532,0.005995,0xFF,0x00
"SPI","result",16.409928,0.005996,0xFF,0x00
"SPI","result",16.416328,0.005992,0xFF,0x00
"SPI","result",16.422721,0.005995,0xFF,0x00
"SPI","result",16.429117,0.005996,0xFF,0x00
"SPI","result",16.435514,0.005995,0xFF,0x00
"SPI","result",16.44191,0.005996,0xFF,0x00
"SPI","result",16.448306,0.005996,0xFF,0x00
"SPI","result",16.454703,0.005996,0xFF,0x00
"SPI","result",16.461099,0.005996,0xFF,0x00
"SPI","result",16.467495,0.005996,0xFF,0x00
"SPI","result",16.473892,0.005995,0xFF,0x00
"SPI","result",16.480288,0.005996,0xFF,0x00
"SPI","result",16.486685,0.005995,0xFF,0x00
"SPI","result",16.493081,0.005995,0xFF,0x00
"SPI","result",16.499478,0.006001,0xFF,0x00
"SPI","result",16.505874,0.005995,0xFF,0x00
"SPI","result",16.51227,0.005996,0xFF,0x00
"SPI","result",16.518667,0.005995,0xFF,0x00
"SPI","result",16.525063,0.006011,0xFF,0x00
"SPI","result",16.53146,0.005994,0xFF,0x00
"SPI","result",16.537866,0.005989,0xFF,0x00
"SPI","result",16.544252,0.005996,0xFF,0x00
"SPI","result",16.550648,0.005996,0xFF,0x00
"SPI","result",16.557044,0.005996,0xFF,0x00
"SPI","result",16.563442,0.005994,0xFF,0x00
"SPI","result",16.569837,0.005996,0xFF,0x00
"SPI","result",16.576234,0.005995,0xFF,0x00
"SPI","result",16.58263,0.005995,0xFF,0x00
"SPI","result",16.589027,0.005994,0xFF,0x00
"SPI","result",16.595423,0.005995,0xFF,0x00
"SPI","result",16.601819,0.005995,0xFF,0x00
"SPI","result",16.608215,0.005996,0xFF,0x00
"SPI","result",16.614612,0.005995,0xFF,0x00
"SPI","result",16.621009,0.005994,0xFF,0x00
"SPI","result",16.627404,0.005996,0xFF,0x00
"SPI","result",16.633801,0.005995,0xFF,0x00
"SPI","result",16.640198,0.005995,0xFF,0x00
"SPI","result",16.646593,0.005997,0xFF,0x00
"SPI","result",16.652993,0.005992,0xFF,0x00
"SPI","result",16.659385,0.005996,0xFF,0x00
"SPI","result",16.665782,0.005996,0xFF,0x00
"SPI","result",16.672179,0.005995,0xFF,0x00
"SPI","result",16.678576,0.005995,0xFF,0x00
"SPI","result",16.684972,0.005995,0xFF,0x00
"SPI","result",16.691369,0.005994,0xFF,0x00
"SPI","result",16.697765,0.005995,0xFF,0x00
"SPI","result",16.704161,0.005995,0xFF,0x00
"SPI","result",16.710557,0.005996,0xFF,0x00
"SPI","result",16.716954,0.005995,0xFF,0x00
"SPI","result",16.72335,0.005996,0xFF,0x00
"SPI","result",16.729747,0.005994,0xFF,0x00
"SPI","result",16.736143,0.005995,0xFF,0x00
"SPI","result",16.742539,0.005996,0xFF,0x00
"SPI","result",16.748936,0.005995,0xFF,0x00
"SPI","result",16.755335,0.005992,0xFF,0x00
"SPI","result",16.761727,0.005997,0xFF,0x00
"SPI","result",16.768125,0.005995,0xFF,0x00
"SPI","result",16.774521,0.005995,0xFF,0x00
"SPI","result",16.780918,0.005994,0xFF,0x00
"SPI","result",16.787325,0.005984,0xFF,0x00
"SPI","result",16.79371,0.005995,0xFF,0x00
"SPI","result",16.800107,0.005995,0xFF,0x00
"SPI","result",16.806503,0.005995,0xFF,0x00
"SPI","result",16.812899,0.005995,0xFF,0x00
"SPI","result",16.819296,0.005994,0xFF,0x00
"SPI","result",16.825692,0.005995,0xFF,0x00
"SPI","result",16.832088,0.005996,0xFF,0x00
"SPI","result",16.838493,0.005987,0xFF,0x00
"SPI","result",16.844881,0.005995,0xFF,0x00
"SPI","result",16.851277,0.005995,0xFF,0x00
"SPI","result",16.857673,0.005996,0xFF,0x00
"SPI","result",16.864069,0.005996,0xFF,0x00
"SPI","result",16.870466,0.005996,0xFF,0x00
"SPI","result",16.876863,0.005996,0xFF,0x00
"SPI","result",16.88326,0.005994,0xFF,0x00
"SPI","result",16.88966,0.005991,0xFF,0x00
"SPI","result",16.896052,0.005995,0xFF,0x00
"SPI","result",16.902448,0.005995,0xFF,0x00
"SPI","result",16.908844,0.005996,0xFF,0x00
"SPI","result",16.915241,0.005995,0xFF,0x00
"SPI","result",16.921637,0.005995,0xFF,0x00
"SPI","result",16.928034,0.005995,0xFF,0x00
"SPI","result",16.93443,0.005995,0xFF,0x00
"SPI","result",16.940826,0.005995,0xFF,0x00
"SPI","result",16.947223,0.005995,0xFF,0x00
"SPI","result",16.953619,0.005995,0xFF,0x00
"SPI","result",16.960015,0.005995,0xFF,0x00
"SPI","result",16.966411,0.005996,0xFF,0x00
"SPI","result",16.972808,0.005996,0xFF,0x00
"SPI","result",16.979204,0.005996,0xFF,0x00
"SPI","result",16.985601,0.005995,0xFF,0x00
"SPI","result",16.991997,0.005995,0xFF,0x00
"SPI","result",16.998394,0.005995,0xFF,0x00
"SPI","result",17.00479,0.005995,0xFF,0x00
"SPI","result",17.011187,0.005994,0xFF,0x00
"SPI","result",17.017583,0.005995,0xFF,0x00
"SPI","result",17.023982,0.005992,0xFF,0x00
"SPI","result",17.030376,0.005995,0xFF,0x00
"SPI","result",17.036772,0.005995,0xFF,0x00
"SPI","result",17.043168,0.005996,0xFF,0x00
"SPI","result",17.049564,0.005996,0xFF,0x00
"SPI","result",17.055961,0.005995,0xFF,0x00
"SPI","result",17.062358,0.005994,0xFF,0x00
"SPI","result",17.068769,0.00598,0xFF,0x00
"SPI","result",17.07515,0.005995,0xFF,0x00
"SPI","result",17.081546,0.005996,0xFF,0x00
"SPI","result",17.087943,0.005995,0xFF,0x00
"SPI","result",17.094339,0.006004,0xFF,0x00
"SPI","result",17.100736,0.005995,0xFF,0x00
"SPI","result",17.107131,0.005996,0xFF,0x00
"SPI","result",17.113548,0.005976,0xFF,0x00
"SPI","result",17.119924,0.005996,0xFF,0x00
"SPI","result",17.126321,0.005995,0xFF,0x00
"SPI","result",17.132717,0.005996,0xFF,0x00
"SPI","result",17.139114,0.005995,0xFF,0x00
"SPI","result",17.14551,0.005995,0xFF,0x00
"SPI","result",17.151906,0.005996,0xFF,0x00
"SPI","result",17.158305,0.005993,0xFF,0x00
"SPI","result",17.164705,0.00599,0xFF,0x00
"SPI","result",17.171095,0.005995,0xFF,0x00
"SPI","result",17.177491,0.005996,0xFF,0x00
"SPI","result",17.183888,0.005995,0xFF,0x00
"SPI","result",17.190285,0.005995,0xFF,0x00
"SPI","result",17.196681,0.005995,0xFF,0x00
"SPI","result",17.203077,0.005995,0xFF,0x00
"SPI","result",17.209474,0.005995,0xFF,0x00
"SPI","result",17.21587,0.005995,0xFF,0x00
"SPI","result",17.222266,0.005996,0xFF,0x00
"SPI","result",17.228663,0.005995,0xFF,0x00
"SPI","result",17.235059,0.005995,0xFF,0x00
"SPI","result",17.241455,0.005995,0xFF,0x00
"SPI","result",17.247852,0.005995,0xFF,0x00
"SPI","result",17.254248,0.005995,0xFF,0x00
"SPI","result",17.260644,0.005996,0xFF,0x00
"SPI","result",17.26704,0.005996,0xFF,0x00
"SPI","result",17.273436,0.005996,0xFF,0x00
"SPI","result",17.279833,0.005998,0xFF,0x00
"SPI","result",17.28623,0.005995,0xFF,0x00
"SPI","result",17.292645,0.005977,0xFF,0x00
"SPI","result",17.299023,0.005995,0xFF,0x00
"SPI","result",17.305419,0.005995,0xFF,0x00
"SPI","result",17.311815,0.005997,0xFF,0x00
"SPI","result",17.318211,0.005997,0xFF,0x00
"SPI","result",17.324608,0.005995,0xFF,0x00
"SPI","result",17.331004,0.006009,0xFF,0x00
"SPI","result",17.337401,0.005999,0xFF,0x00
"SPI","result",17.343801,0.00599,0xFF,0x00
"SPI","result",17.350193,0.005995,0xFF,0x00
"SPI","result",17.35659,0.006022,0xFF,0x00
"SPI","result",17.36299,0.005996,0xFF,0x00
"SPI","result",17.369382,0.005996,0xFF,0x00
"SPI","result",17.375779,0.005995,0xFF,0x00
"SPI","result",17.382179,0.005996,0xFF,0x00
"SPI","result",17.388576,0.005991,0xFF,0x00
"SPI","result",17.394968,0.005995,0xFF,0x00
"SPI","result",17.401365,0.005999,0xFF,0x00
"SPI","result",17.407783,0.005973,0xFF,0x00
"SPI","result",17.414157,0.006001,0xFF,0x00
"SPI","result",17.420553,0.006,0xFF,0x00
"SPI","result",17.426954,0.005991,0xFF,0x00
"SPI","result",17.433346,0.005995,0xFF,0x00
"SPI","result",17.439742,0.006,0xFF,0x00
"SPI","result",17.446143,0.005991,0xFF,0x00
"SPI","result",17.452536,0.005995,0xFF,0x00
"SPI","result",17.458938,0.00601,0xFF,0x00
"SPI","result",17.465334,0.005989,0xFF,0x00
"SPI","result",17.471724,0.005996,0xFF,0x00
"SPI","result",17.47812,0.006,0xFF,0x00
"SPI","result",17.484521,0.005991,0xFF,0x00
"SPI","result",17.49093,0.005979,0xFF,0x00
"SPI","result",17.497312,0.005997,0xFF,0x00
"SPI","result",17.503711,0.005989,0xFF,0x00
"SPI","result",17.510101,0.005997,0xFF,0x00
"SPI","result",17.516499,0.005999,0xFF,0x00
"SPI","result",17.522899,0.005995,0xFF,0x00
"SPI","result",17.52929,0.005997,0xFF,0x00
"SPI","result",17.535688,0.005996,0xFF,0x00
"SPI","result",17.542087,0.005997,0xFF,0x00
"SPI","result",17.548485,0.005991,0xFF,0x00
"SPI","result",17.554877,0.005995,0xFF,0x00
"SPI","result",17.561274,0.005999,0xFF,0x00
"SPI","result",17.567675,0.00599,0xFF,0x00
"SPI","result",17.574066,0.005996,0xFF,0x00
"SPI","result",17.580462,0.006,0xFF,0x00
"SPI","result",17.586863,0.005991,0xFF,0x00
"SPI","result",17.593255,0.005995,0xFF,0x00
"SPI","result",17.599652,0.005999,0xFF,0x00
"SPI","result",17.606052,0.005991,0xFF,0x00
"SPI","result",17.612445,0.005995,0xFF,0x00
"SPI","result",17.618841,0.005999,0xFF,0x00
"SPI","result",17.625243,0.005988,0xFF,0x00
"SPI","result",17.63164,0.005988,0xFF,0x00
"SPI","result",17.638029,0.006,0xFF,0x00
"SPI","result",17.64443,0.00599,0xFF,0x00
"SPI","result",17.650822,0.005996,0xFF,0x00
"SPI","result",17.657219,0.006001,0xFF,0x00
"SPI","result",17.663621,0.005988,0xFF,0x00
"SPI","result",17.670011,0.005995,0xFF,0x00
"SPI","result",17.676408,0.006001,0xFF,0x00
"SPI","result",17.68281,0.005995,0xFF,0x00
"SPI","result",17.6892,0.005996,0xFF,0x00
"SPI","result",17.695597,0.005995,0xFF,0x00
"SPI","result",17.701998,0.005996,0xFF,0x00
"SPI","result",17.708395,0.00599,0xFF,0x00
"SPI","result",17.714799,0.005983,0xFF,0x00
"SPI","result",17.721182,0.006001,0xFF,0x00
"SPI","result",17.727584,0.00599,0xFF,0x00
"SPI","result",17.733975,0.006017,0xFF,0x00
"SPI","result",17.740371,0.006001,0xFF,0x00
"SPI","result",17.746774,0.005989,0xFF,0x00
"SPI","result",17.753164,0.006001,0xFF,0x00
"SPI","result",17.759561,0.006,0xFF,0x00
"SPI","result",17.765962,0.00599,0xFF,0x00
"SPI","result",17.772353,0.005995,0xFF,0x00
"SPI","result",17.77875,0.006001,0xFF,0x00
"SPI","result",17.785154,0.005987,0xFF,0x00
"SPI","result",17.791542,0.005996,0xFF,0x00
"SPI","result",17.797939,0.006,0xFF,0x00
"SPI","result",17.804341,0.005988,0xFF,0x00
"SPI","result",17.810731,0.005995,0xFF,0x00
"SPI","result",17.817128,0.006001,0xFF,0x00
"SPI","result",17.82353,0.005988,0xFF,0x00
"SPI","result",17.82992,0.005996,0xFF,0x00
"SPI","result",17.836317,0.006001,0xFF,0x00
"SPI","result",17.842719,0.005995,0xFF,0x00
"SPI","result",17.849108,0.005997,0xFF,0x00
"SPI","result",17.855506,0.005996,0xFF,0x00
"SPI","result",17.861907,0.005997,0xFF,0x00
"SPI","result",17.868305,0.005989,0xFF,0x00
"SPI","result",17.874695,0.005995,0xFF,0x00
"SPI","result",17.881091,0.006002,0xFF,0x00
"SPI","result",17.887493,0.005999,0xFF,0x00
"SPI","result",17.893884,0.005996,0xFF,0x00
"SPI","result",17.90028,0.006001,0xFF,0x00
"SPI","result",17.906686,0.005986,0xFF,0x00
"SPI","result",17.913073,0.005996,0xFF,0x00
"SPI","result",17.919469,0.006023,0xFF,0x00
"SPI","result",17.925872,0.005989,0xFF,0x00
"SPI","result",17.932262,0.006011,0xFF,0x00
"SPI","result",17.938658,0.006002,0xFF,0x00
"SPI","result",17.945062,0.005988,0xFF,0x00
"SPI","result",17.951451,0.005995,0xFF,0x00
"SPI","result",17.957848,0.006001,0xFF,0x00
"SPI","result",17.96425,0.005988,0xFF,0x00
"SPI","result",17.97064,0.005996,0xFF,0x00
"SPI","result",17.977036,0.006002,0xFF,0x00
"SPI","result",17.983439,0.005988,0xFF,0x00
"SPI","result",17.989829,0.005996,0xFF,0x00
"SPI","result",17.996248,0.005979,0xFF,0x00
"SPI","result",18.002628,0.005995,0xFF,0x00
"SPI","result",18.009018,0.005997,0xFF,0x00
"SPI","result",18.015415,0.005995,0xFF,0x00
"SPI","result",18.021816,0.005999,0xFF,0x00
"SPI","result",18.028213,0.00599,0xFF,0x00
"SPI","result",18.034604,0.005995,0xFF,0x00
"SPI","result",18.041,0.006002,0xFF,0x00
"SPI","result",18.047402,0.00599,0xFF,0x00
"SPI","result",18.053793,0.005995,0xFF,0x00
"SPI","result",18.060189,0.006002,0xFF,0x00
"SPI","result",18.066592,0.005989,0xFF,0x00
"SPI","result",18.072983,0.005995,0xFF,0x00
"SPI","result",18.079379,0.006,0xFF,0x00
"SPI","result",18.085781,0.005989,0xFF,0x00
"SPI","result",18.092171,0.005996,0xFF,0x00
"SPI","result",18.098568,0.006001,0xFF,0x00
"SPI","result",18.104971,0.005988,0xFF,0x00
"SPI","result",18.11136,0.005996,0xFF,0x00
"SPI","result",18.117757,0.006001,0xFF,0x00
"SPI","result",18.124159,0.005989,0xFF,0x00
"SPI","result",18.130549,0.005996,0xFF,0x00
"SPI","result",18.136946,0.006001,0xFF,0x00
"SPI","result",18.143348,0.005989,0xFF,0x00
"SPI","result",18.149737,0.005997,0xFF,0x00
"SPI","result",18.156135,0.006001,0xFF,0x00
"SPI","result",18.162537,0.005995,0xFF,0x00
"SPI","result",18.168927,0.005996,0xFF,0x00
"SPI","result",18.175324,0.005995,0xFF,0x00
"SPI","result",18.181725,0.005996,0xFF,0x00
"SPI","result",18.188122,0.00599,0xFF,0x00
"SPI","result",18.194513,0.005995,0xFF,0x00
"SPI","result",18.200909,0.006001,0xFF,0x00
"SPI","result",18.207312,0.005989,0xFF,0x00
"SPI","result",18.213702,0.005996,0xFF,0x00
"SPI","result",18.220098,0.006002,0xFF,0x00
"SPI","result",18.2265,0.006001,0xFF,0x00
"SPI","result",18.232891,0.005996,0xFF,0x00
"SPI","result",18.239287,0.006001,0xFF,0x00
"SPI","result",18.24569,0.005989,0xFF,0x00
"SPI","result",18.25208,0.005995,0xFF,0x00
"SPI","result",18.258477,0.006001,0xFF,0x00
"SPI","result",18.26488,0.005988,0xFF,0x00
"SPI","result",18.27127,0.005994,0xFF,0x00
"SPI","result",18.277666,0.006001,0xFF,0x00
"SPI","result",18.284068,0.005988,0xFF,0x00
"SPI","result",18.290459,0.005994,0xFF,0x00
"SPI","result",18.296855,0.006001,0xFF,0x00
"SPI","result",18.303257,0.005989,0xFF,0x00
"SPI","result",18.309655,0.005988,0xFF,0x00
"SPI","result",18.316044,0.006001,0xFF,0x00
"SPI","result",18.322446,0.006002,0xFF,0x00
"SPI","result",18.328836,0.005996,0xFF,0x00
"SPI","result",18.335233,0.005995,0xFF,0x00
"SPI","result",18.341634,0.005996,0xFF,0x00
"SPI","result",18.348031,0.00599,0xFF,0x00
"SPI","result",18.354422,0.005996,0xFF,0x00
"SPI","result",18.360818,0.006001,0xFF,0x00
"SPI","result",18.367221,0.005989,0xFF,0x00
"SPI","result",18.373611,0.005996,0xFF,0x00
"SPI","result",18.380008,0.006001,0xFF,0x00
"SPI","result",18.38643,0.005969,0xFF,0x00
"SPI","result",18.392801,0.005994,0xFF,0x00
"SPI","result",18.399197,0.006001,0xFF,0x00
"SPI","result",18.405599,0.005989,0xFF,0x00
"SPI","result",18.41199,0.005995,0xFF,0x00
"SPI","result",18.418386,0.006,0xFF,0x00
"SPI","result",18.424789,0.005996,0xFF,0x00
"SPI","result",18.431178,0.005996,0xFF,0x00
"SPI","result",18.437574,0.006001,0xFF,0x00
"SPI","result",18.443978,0.005988,0xFF,0x00
"SPI","result",18.450368,0.005995,0xFF,0x00
"SPI","result",18.456764,0.005999,0xFF,0x00
"SPI","result",18.463164,0.005991,0xFF,0x00
"SPI","result",18.469556,0.005996,0xFF,0x00
"SPI","result",18.475953,0.006,0xFF,0x00
"SPI","result",18.482354,0.005995,0xFF,0x00
"SPI","result",18.488745,0.005997,0xFF,0x00
"SPI","result",18.495142,0.005996,0xFF,0x00
"SPI","result",18.501542,0.005996,0xFF,0x00
"SPI","result",18.507939,0.005991,0xFF,0x00
"SPI","result",18.514331,0.005995,0xFF,0x00
"SPI","result",18.520745,0.005982,0xFF,0x00
"SPI","result",18.527128,0.005992,0xFF,0x00
"SPI","result",18.53352,0.005995,0xFF,0x00
"SPI","result",18.539918,0.005998,0xFF,0x00
"SPI","result",18.546318,0.00599,0xFF,0x00
"SPI","result",18.552709,0.005995,0xFF,0x00
"SPI","result",18.559106,0.005999,0xFF,0x00
"SPI","result",18.565506,0.006006,0xFF,0x00
"SPI","result",18.571898,0.005996,0xFF,0x00
"SPI","result",18.578296,0.005998,0xFF,0x00
"SPI","result",18.5847,0.005987,0xFF,0x00
"SPI","result",18.591087,0.005996,0xFF,0x00
"SPI","result",18.597484,0.005999,0xFF,0x00
"SPI","result",18.603884,0.005991,0xFF,0x00
"SPI","result",18.610276,0.005996,0xFF,0x00
"SPI","result",18.616673,0.005999,0xFF,0x00
"SPI","result",18.623073,0.005991,0xFF,0x00
"SPI","result",18.629465,0.005996,0xFF,0x00
"SPI","result",18.635863,0.005998,0xFF,0x00
"SPI","result",18.642263,0.005997,0xFF,0x00
"SPI","result",18.648672,0.005978,0xFF,0x00
"SPI","result",18.655051,0.005996,0xFF,0x00
"SPI","result",18.661452,0.005996,0xFF,0x00
"SPI","result",18.667849,0.00599,0xFF,0x00
"SPI","result",18.674241,0.005994,0xFF,0x00
"SPI","result",18.680636,0.006001,0xFF,0x00
"SPI","result",18.687039,0.00599,0xFF,0x00
"SPI","result",18.693429,0.005996,0xFF,0x00
"SPI","result",18.699826,0.006,0xFF,0x00
"SPI","result",18.706228,0.005989,0xFF,0x00
"SPI","result",18.712619,0.005995,0xFF,0x00
"SPI","result",18.719014,0.006003,0xFF,0x00
"SPI","result",18.725417,0.005989,0xFF,0x00
"SPI","result",18.731807,0.005995,0xFF,0x00
"SPI","result",18.738204,0.006001,0xFF,0x00
"SPI","result",18.74461,0.005985,0xFF,0x00
"SPI","result",18.750996,0.005995,0xFF,0x00
"SPI","result",18.757393,0.006001,0xFF,0x00
"SPI","result",18.763795,0.005989,0xFF,0x00
"SPI","result",18.770186,0.005995,0xFF,0x00
"SPI","result",18.776582,0.006015,0xFF,0x00
"SPI","result",18.782987,0.005986,0xFF,0x00
"SPI","result",18.789374,0.005996,0xFF,0x00
"SPI","result",18.795771,0.006001,0xFF,0x00
"SPI","result",18.802173,0.005995,0xFF,0x00
"SPI","result",18.808563,0.005996,0xFF,0x00
"SPI","result",18.814975,0.00598,0xFF,0x00
"SPI","result",18.821361,0.005997,0xFF,0x00
"SPI","result",18.827758,0.00599,0xFF,0x00
"SPI","result",18.834149,0.005995,0xFF,0x00
"SPI","result",18.840546,0.006,0xFF,0x00
"SPI","result",18.846948,0.005989,0xFF,0x00
"SPI","result",18.853338,0.005995,0xFF,0x00
"SPI","result",18.859735,0.006001,0xFF,0x00
"SPI","result",18.866137,0.005989,0xFF,0x00
"SPI","result",18.872527,0.005996,0xFF,0x00
"SPI","result",18.878923,0.006023,0xFF,0x00
"SPI","result",18.885326,0.00599,0xFF,0x00
"SPI","result",18.891716,0.005996,0xFF,0x00
"SPI","result",18.898113,0.006001,0xFF,0x00
"SPI","result",18.90452,0.005994,0xFF,0x00
"SPI","result",18.910905,0.005996,0xFF,0x00
"SPI","result",18.917302,0.006001,0xFF,0x00
"SPI","result",18.923704,0.005989,0xFF,0x00
"SPI","result",18.930094,0.005996,0xFF,0x00
"SPI","result",18.936491,0.006001,0xFF,0x00
"SPI","result",18.942893,0.005989,0xFF,0x00
"SPI","result",18.949283,0.005996,0xFF,0x00
"SPI","result",18.95568,0.006001,0xFF,0x00
"SPI","result",18.962082,0.005996,0xFF,0x00
"SPI","result",18.968472,0.006001,0xFF,0x00
"SPI","result",18.97487,0.005994,0xFF,0x00
"SPI","result",18.98127,0.005997,0xFF,0x00
"SPI","result",18.987668,0.005989,0xFF,0x00
"SPI","result",18.994058,0.005995,0xFF,0x00
"SPI","result",19.000455,0.006001,0xFF,0x00
"SPI","result",19.006857,0.005989,0xFF,0x00
"SPI","result",19.013248,0.005994,0xFF,0x00
"SPI","result",19.019644,0.006,0xFF,0x00
"SPI","result",19.026046,0.005989,0xFF,0x00
"SPI","result",19.032436,0.005996,0xFF,0x00
"SPI","result",19.038834,0.006003,0xFF,0x00
"SPI","result",19.045235,0.00599,0xFF,0x00
"SPI","result",19.051625,0.005995,0xFF,0x00
"SPI","result",19.058022,0.006001,0xFF,0x00
"SPI","result",19.064429,0.005984,0xFF,0x00
"SPI","result",19.070815,0.005995,0xFF,0x00
"SPI","result",19.077211,0.006001,0xFF,0x00
"SPI","result",19.083613,0.005988,0xFF,0x00
"SPI","result",19.090003,0.005996,0xFF,0x00
"SPI","result",19.0964,0.006001,0xFF,0x00
"SPI","result",19.102803,0.005988,0xFF,0x00
"SPI","result",19.109192,0.005996,0xFF,0x00
"SPI","result",19.115589,0.006001,0xFF,0x00
"SPI","result",19.121992,0.006015,0xFF,0x00
"SPI","result",19.128381,0.006017,0xFF,0x00
"SPI","result",19.134778,0.005995,0xFF,0x00
"SPI","result",19.141179,0.005996,0xFF,0x00
"SPI","result",19.147576,0.00599,0xFF,0x00
"SPI","result",19.153967,0.005996,0xFF,0x00
"SPI","result",19.160364,0.006012,0xFF,0x00
"SPI","result",19.166766,0.005993,0xFF,0x00
"SPI","result",19.173156,0.005996,0xFF,0x00
"SPI","result",19.179556,0.005997,0xFF,0x00
"SPI","result",19.185955,0.006003,0xFF,0x00
"SPI","result",19.192345,0.005995,0xFF,0x00
"SPI","result",19.198742,0.006001,0xFF,0x00
"SPI","result",19.205144,0.005989,0xFF,0x00
"SPI","result",19.211535,0.005994,0xFF,0x00
"SPI","result",19.217931,0.006001,0xFF,0x00
"SPI","result",19.224338,0.005985,0xFF,0x00
"SPI","result",19.230723,0.005996,0xFF,0x00
"SPI","result",19.23712,0.006001,0xFF,0x00
"SPI","result",19.243522,0.005989,0xFF,0x00
"SPI","result",19.249913,0.005995,0xFF,0x00
"SPI","result",19.25631,0.006,0xFF,0x00
"SPI","result",19.262711,0.005989,0xFF,0x00
"SPI","result",19.269101,0.005996,0xFF,0x00
"SPI","result",19.275498,0.006001,0xFF,0x00
"SPI","result",19.2819,0.005996,0xFF,0x00
"SPI","result",19.28829,0.005997,0xFF,0x00
"SPI","result",19.294687,0.005995,0xFF,0x00
"SPI","result",19.301089,0.005998,0xFF,0x00
"SPI","result",19.307486,0.005989,0xFF,0x00
"SPI","result",19.313876,0.005995,0xFF,0x00
"SPI","result",19.320273,0.006001,0xFF,0x00
"SPI","result",19.326683,0.005981,0xFF,0x00
"SPI","result",19.333065,0.005996,0xFF,0x00
"SPI","result",19.339462,0.006001,0xFF,0x00
"SPI","result",19.345864,0.005989,0xFF,0x00
"SPI","result",19.352254,0.005995,0xFF,0x00
"SPI","result",19.358651,0.006,0xFF,0x00
"SPI","result",19.365053,0.005989,0xFF,0x00
"SPI","result",19.371444,0.005995,0xFF,0x00
"SPI","result",19.37784,0.006001,0xFF,0x00
"SPI","result",19.384246,0.005985,0xFF,0x00
"SPI","result",19.390641,0.005987,0xFF,0x00
"SPI","result",19.397029,0.006001,0xFF,0x00
"SPI","result",19.403431,0.005988,0xFF,0x00
"SPI","result",19.409822,0.005995,0xFF,0x00
"SPI","result",19.416218,0.006001,0xFF,0x00
"SPI","result",19.42262,0.00601,0xFF,0x00
"SPI","result",19.42901,0.005997,0xFF,0x00
"SPI","result",19.435407,0.006,0xFF,0x00
"SPI","result",19.441808,0.005996,0xFF,0x00
"SPI","result",19.448199,0.005996,0xFF,0x00
"SPI","result",19.454597,0.005994,0xFF,0x00
"SPI","result",19.460996,0.005996,0xFF,0x00
"SPI","result",19.467393,0.005992,0xFF,0x00
"SPI","result",19.473785,0.005995,0xFF,0x00
"SPI","result",19.480181,0.006,0xFF,0x00
"SPI","result",19.486582,0.005991,0xFF,0x00
"SPI","result",19.492974,0.005996,0xFF,0x00
"SPI","result",19.49939,0.00598,0xFF,0x00
"SPI","result",19.505771,0.005991,0xFF,0x00
"SPI","result",19.512163,0.005996,0xFF,0x00
"SPI","result",19.518563,0.005996,0xFF,0x00
"SPI","result",19.524961,0.005991,0xFF,0x00
"SPI","result",19.531352,0.005996,0xFF,0x00
"SPI","result",19.53775,0.005999,0xFF,0x00
"SPI","result",19.544154,0.00599,0xFF,0x00
"SPI","result",19.550541,0.005996,0xFF,0x00
"SPI","result",19.556939,0.005999,0xFF,0x00
"SPI","result",19.563338,0.005991,0xFF,0x00
"SPI","result",19.569753,0.005973,0xFF,0x00
"SPI","result",19.576127,0.005999,0xFF,0x00
"SPI","result",19.582528,0.00599,0xFF,0x00
"SPI","result",19.588919,0.005996,0xFF,0x00
"SPI","result",19.595317,0.005999,0xFF,0x00
"SPI","result",19.601717,0.005996,0xFF,0x00
"SPI","result",19.608108,0.005996,0xFF,0x00
"SPI","result",19.614506,0.005995,0xFF,0x00
"SPI","result",19.620905,0.005997,0xFF,0x00
"SPI","result",19.627302,0.005991,0xFF,0x00
"SPI","result",19.633694,0.005996,0xFF,0x00
"SPI","result",19.640091,0.006,0xFF,0x00
"SPI","result",19.646491,0.005991,0xFF,0x00
"SPI","result",19.65289,0.005989,0xFF,0x00
"SPI","result",19.65928,0.006002,0xFF,0x00
"SPI","result",19.665682,0.005989,0xFF,0x00
"SPI","result",19.672072,0.005996,0xFF,0x00
"SPI","result",19.678469,0.006001,0xFF,0x00
"SPI","result",19.684871,0.00599,0xFF,0x00
"SPI","result",19.691262,0.005996,0xFF,0x00
"SPI","result",19.697658,0.006001,0xFF,0x00
"SPI","result",19.704064,0.005985,0xFF,0x00
"SPI","result",19.710451,0.005995,0xFF,0x00
"SPI","result",19.716847,0.006001,0xFF,0x00
"SPI","result",19.723249,0.005989,0xFF,0x00
"SPI","result",19.729639,0.005996,0xFF,0x00
"SPI","result",19.736036,0.006001,0xFF,0x00
"SPI","result",19.742438,0.005989,0xFF,0x00
"SPI","result",19.748828,0.005996,0xFF,0x00
"SPI","result",19.755225,0.006001,0xFF,0x00
"SPI","result",19.761628,0.005995,0xFF,0x00
"SPI","result",19.768017,0.005997,0xFF,0x00
"SPI","result",19.774419,0.005991,0xFF,0x00
"SPI","result",19.780816,0.005996,0xFF,0x00
"SPI","result",19.787215,0.005988,0xFF,0x00
"SPI","result",19.793603,0.006006,0xFF,0x00
"SPI","result",19.8,0.006001,0xFF,0x00
"SPI","result",19.806419,0.005973,0xFF,0x00
"SPI","result",19.812792,0.005996,0xFE,0x00
"SPI","result",19.819189,0.006001,0xFD,0x00
"SPI","result",19.825591,0.005989,0x10,0x00
"SPI","result",19.831986,0.005991,0x00,0x00
"SPI","result",19.838378,0.006001,0x00,0x00
"SPI","result",19.84478,0.005989,0x00,0x00
"SPI","result",19.85117,0.005996,0x00,0x00
"SPI","result",19.857567,0.006001,0xFD,0x00
"SPI","result",19.863974,0.005985,0xFF,0x00
"SPI","result",19.87036,0.005995,0xFF,0x00
"SPI","result",19.876756,0.006001,0xFF,0x00
"SPI","result",19.883158,0.005989,0xFF,0x00
"SPI","result",19.889548,0.005996,0xBF,0x00
"SPI","result",19.895945,0.006001,0x24,0x00
"SPI","result",19.902347,0.005989,0x00,0x00
"SPI","result",19.908737,0.005996,0x08,0x00
"SPI","result",19.915134,0.006003,0x00,0x00
"SPI","result",19.921536,0.005995,0x00,0x00
"SPI","result",19.927926,0.005996,0x00,0x00
"SPI","result",19.934338,0.00598,0x00,0x00
"SPI","result",19.94072,0.006001,0x3F,0x00
"SPI","result",19.947122,0.005989,0x7F,0x00
"SPI","result",19.953513,0.005995,0xEF,0x00
"SPI","result",19.959909,0.006001,0xD1,0x00
"SPI","result",19.966311,0.00599,0x00,0x00
"SPI","result",19.972702,0.005995,0x00,0x00
"SPI","result",19.979098,0.006,0x00,0x00
"SPI","result",19.985511,0.005978,0x00,0x00
"SPI","result",19.99189,0.005996,0x0F,0x00
"SPI","result",19.998287,0.006017,0xDF,0x00
"SPI","result",20.004689,0.00599,0xFB,0x00
"SPI","result",20.011102,0.005973,0xF2,0x00
"SPI","result",20.017476,0.006001,0x40,0x00
"SPI","result",20.023892,0.005976,0x00,0x00
"SPI","result",20.030269,0.005995,0x80,0x00
"SPI","result",20.036665,0.006001,0x00,0x00
"SPI","result",20.043067,0.005989,0x00,0x00
"SPI","result",20.049457,0.005996,0x00,0x00
"SPI","result",20.055854,0.006001,0x03,0x00
"SPI","result",20.062256,0.005989,0xF7,0x00
"SPI","result",20.068647,0.005995,0xFE,0x00
"SPI","result",20.075044,0.006,0xFC,0x00
"SPI","result",20.081445,0.005995,0x91,0x00
"SPI","result",20.087841,0.00599,0x00,0x00
"SPI","result",20.094232,0.005996,0x00,0x00
"SPI","result",20.100629,0.006001,0x00,0x00
"SPI","result",20.107031,0.00602,0x00,0x00
"SPI","result",20.113421,0.005996,0x00,0x00
"SPI","result",20.119818,0.006,0x00,0x00
"SPI","result",20.12622,0.005989,0xFD,0x00
"SPI","result",20.13261,0.005996,0xFF,0x00
"SPI","result",20.139007,0.006001,0xEF,0x00
"SPI","result",20.145409,0.005989,0xC1,0x00
"SPI","result",20.1518,0.005995,0x00,0x00
"SPI","result",20.158196,0.006006,0x02,0x00
"SPI","result",20.164598,0.005989,0x08,0x00
"SPI","result",20.170989,0.005995,0x60,0x00
"SPI","result",20.177385,0.006001,0x00,0x00
"SPI","result",20.183787,0.005989,0x0F,0x00
"SPI","result",20.190177,0.005996,0xDF,0x00
"SPI","result",20.196574,0.006001,0xFB,0x00
"SPI","result",20.202977,0.005998,0xF1,0x00
"SPI","result",20.209367,0.005995,0x55,0x00
"SPI","result",20.215763,0.006001,0x04,0x00
"SPI","result",20.222165,0.005989,0x01,0x00
"SPI","result",20.228555,0.005996,0xAD,0x00
"SPI","result",20.234953,0.006,0x07,0x00
"SPI","result",20.241361,0.005988,0x40,0x00
"SPI","result",20.247758,0.005982,0x82,0x00
"SPI","result",20.254141,0.005996,0x43,0x00
"SPI","result",20.260538,0.006002,0xF7,0x00
"SPI","result",20.26694,0.005989,0xFE,0x00
"SPI","result",20.27333,0.005996,0xFC,0x00
"SPI","result",20.279727,0.006001,0x50,0x00
"SPI","result",20.286129,0.00599,0x00,0x00
"SPI","result",20.292519,0.005995,0x00,0x00
"SPI","result",20.298916,0.006001,0x00,0x00
"SPI","result",20.305318,0.005989,0x00,0x00
"SPI","result",20.311709,0.005995,0x00,0x00
"SPI","result",20.318105,0.006006,0x02,0x00
"SPI","result",20.324518,0.005978,0xFC,0x00
"SPI","result",20.330897,0.005996,0xFF,0x00
"SPI","result",20.337294,0.006001,0xBF,0x00
"SPI","result",20.343696,0.00599,0x54,0x00
"SPI","result",20.350086,0.005996,0x00,0x00
"SPI","result",20.356483,0.006001,0x00,0x00
"SPI","result",20.362885,0.005989,0x00,0x00
"SPI","result",20.369275,0.005996,0x00,0x00
"SPI","result",20.375672,0.006001,0x60,0x00
"SPI","result",20.382075,0.005988,0x3F,0x00
"SPI","result",20.388464,0.005997,0x3F,0x00
"SPI","result",20.394861,0.006,0xFF,0x00
"SPI","result",20.401263,0.006015,0xFF,0x00
"SPI","result",20.40766,0.005989,0xFF,0x00
"SPI","result",20.414051,0.005994,0xFF,0x00
"SPI","result",20.420447,0.006001,0xFF,0x00
"SPI","result",20.426849,0.005989,0xFF,0x00
"SPI","result",20.43324,0.005994,0xFF,0x00
"SPI","result",20.439636,0.005999,0xFF,0x00
"SPI","result",20.446036,0.005994,0xFF,0x00
"SPI","result",20.452429,0.005995,0xFF,0x00
"SPI","result",20.458825,0.005999,0xFF,0x00
"SPI","result",20.465226,0.005991,0xFF,0x00
"SPI","result",20.471618,0.005995,0xFF,0x00
"SPI","result",20.478014,0.006004,0xFF,0x00
"SPI","result",20.484414,0.005992,0xFF,0x00
"SPI","result",20.490807,0.005995,0xFF,0x00
"SPI","result",20.497203,0.006,0xFF,0x00
"SPI","result",20.503604,0.005991,0xFF,0x00
"SPI","result",20.509995,0.005996,0xFF,0x00
"SPI","result",20.516392,0.005999,0xFF,0x00
"SPI","result",20.522793,0.00599,0xFF,0x00
"SPI","result",20.529184,0.005996,0xFF,0x00
"SPI","result",20.535581,0.006,0xFF,0x00
"SPI","result",20.541983,0.005989,0xFF,0x00
"SPI","result",20.548373,0.005996,0xFF,0x00
"SPI","result",20.55477,0.005999,0xFF,0x00
"SPI","result",20.561171,0.005996,0xFF,0x00
"SPI","result",20.567567,0.005991,0xFF,0x00
"SPI","result",20.573971,0.005984,0xFF,0x00
"SPI","result",20.580355,0.006,0xFF,0x00
"SPI","result",20.586756,0.005992,0xFF,0x00
"SPI","result",20.593149,0.005995,0xFF,0x00
"SPI","result",20.599545,0.005999,0xFF,0x00
"SPI","result",20.605945,0.005991,0xFF,0x00
"SPI","result",20.612338,0.005995,0xFF,0x00
"SPI","result",20.61875,0.005983,0xFF,0x00
"SPI","result",20.625134,0.005992,0xFF,0x00
"SPI","result",20.631527,0.005995,0xFF,0x00
"SPI","result",20.637923,0.006004,0xFF,0x00
"SPI","result",20.644324,0.00599,0xFF,0x00
"SPI","result",20.650716,0.005996,0xFF,0x00
"SPI","result",20.657112,0.006001,0xFF,0x00
"SPI","result",20.663514,0.00599,0xFF,0x00
"SPI","result",20.669905,0.005995,0xFF,0x00
"SPI","result",20.676301,0.006001,0xFF,0x00
"SPI","result",20.682703,0.005989,0xFF,0x00
"SPI","result",20.689093,0.005996,0xFF,0x00
"SPI","result",20.69549,0.006001,0xFF,0x00
"SPI","result",20.701892,0.005989,0xFF,0x00
"SPI","result",20.708283,0.006017,0xFF,0x00
"SPI","result",20.71468,0.005999,0xFF,0x00
"SPI","result",20.721081,0.005996,0xFF,0x00
"SPI","result",20.727478,0.005989,0xFF,0x00
"SPI","result",20.733868,0.005997,0xFF,0x00
"SPI","result",20.740265,0.006001,0xFF,0x00
"SPI","result",20.746667,0.005989,0xFF,0x00
"SPI","result",20.753057,0.005996,0xFF,0x00
"SPI","result",20.759454,0.006001,0xFF,0x00
"SPI","result",20.765856,0.005989,0xFF,0x00
"SPI","result",20.772246,0.005996,0xFF,0x00
"SPI","result",20.778643,0.006001,0xFF,0x00
"SPI","result",20.785065,0.005978,0xFF,0x00
"SPI","result",20.791436,0.005996,0xFF,0x00
"SPI","result",20.797832,0.006005,0xFF,0x00
"SPI","result",20.804234,0.00599,0xFF,0x00
"SPI","result",20.810624,0.005996,0xFF,0x00
"SPI","result",20.817021,0.006001,0xFF,0x00
"SPI","result",20.823423,0.00599,0xFF,0x00
"SPI","result",20.829814,0.005995,0xFF,0x00
"SPI","result",20.83621,0.00601,0xFF,0x00
"SPI","result",20.842612,0.005989,0xFF,0x00
"SPI","result",20.849002,0.005997,0xFF,0x00
"SPI","result",20.855399,0.006001,0xFF,0x00
"SPI","result",20.861801,0.00599,0xFF,0x00
"SPI","result",20.868192,0.005995,0xFF,0x00
"SPI","result",20.874589,0.005999,0xFF,0x00
"SPI","result",20.88099,0.005995,0xFF,0x00
"SPI","result",20.887387,0.00599,0xFF,0x00
"SPI","result",20.893777,0.005996,0xFF,0x00
"SPI","result",20.900174,0.006,0xFF,0x00
"SPI","result",20.906576,0.005989,0xFF,0x00
"SPI","result",20.912966,0.005996,0xFF,0x00
"SPI","result",20.91938,0.005985,0xFF,0x00
"SPI","result",20.925765,0.00599,0xFF,0x00
"SPI","result",20.932156,0.005995,0xFF,0x00
"SPI","result",20.938552,0.006001,0xFF,0x00
"SPI","result",20.944954,0.005989,0xFF,0x00
"SPI","result",20.951344,0.005996,0xFF,0x00
"SPI","result",20.957741,0.006006,0xFF,0x00
"SPI","result",20.964143,0.00599,0xFF,0x00
"SPI","result",20.970533,0.005996,0xFF,0x00
"SPI","result",20.97693,0.006001,0xFF,0x00
"SPI","result",20.983332,0.006003,0xFF,0x00
"SPI","result",20.989724,0.005995,0xFF,0x00
"SPI","result",20.996134,0.005988,0xFF,0x00
"SPI","result",21.002524,0.005986,0xFF,0x00
"SPI","result",21.008911,0.005996,0xFF,0x00
"SPI","result",21.015308,0.006006,0xFF,0x00
"SPI","result",21.021711,0.005988,0xFF,0x00
"SPI","result",21.0281,0.005997,0xFF,0x00
"SPI","result",21.034497,0.00602,0xFF,0x00
"SPI","result",21.040899,0.005996,0xFF,0x00
"SPI","result",21.047296,0.005989,0xFF,0x00
"SPI","result",21.053687,0.005995,0xFF,0x00
"SPI","result",21.060083,0.006001,0xFF,0x00
"SPI","result",21.066485,0.005992,0xFF,0x00
"SPI","result",21.072875,0.005996,0xFF,0x00
"SPI","result",21.079272,0.006001,0xFF,0x00
"SPI","result",21.085675,0.005988,0xFF,0x00
"SPI","result",21.092065,0.005995,0xFF,0x00
"SPI","result",21.098461,0.006001,0xFF,0x00
"SPI","result",21.104863,0.005989,0xFF,0x00
"SPI","result",21.111253,0.005996,0xFF,0x00
"SPI","result",21.11765,0.006005,0xFF,0x00
"SPI","result",21.124052,0.00599,0xFF,0x00
"SPI","result",21.130443,0.005995,0xFF,0x00
"SPI","result",21.136839,0.006002,0xFF,0x00
"SPI","result",21.143242,0.005989,0xFF,0x00
"SPI","result",21.149632,0.005995,0xFF,0x00
"SPI","result",21.156028,0.006001,0xFF,0x00
"SPI","result",21.16243,0.005989,0xFF,0x00
"SPI","result",21.168821,0.005995,0xFF,0x00
"SPI","result",21.175228,0.00599,0xFF,0x00
"SPI","result",21.181619,0.005989,0xFF,0x00
"SPI","result",21.188009,0.005996,0xFF,0x00
"SPI","result",21.194406,0.006001,0xFF,0x00
"SPI","result",21.200808,0.005996,0xFF,0x00
"SPI","result",21.20721,0.005985,0xFF,0x00
"SPI","result",21.213595,0.005996,0xFF,0x00
"SPI","result",21.219992,0.006001,0xFF,0x00
"SPI","result",21.226394,0.00599,0xFF,0x00
"SPI","result",21.232785,0.005995,0xFF,0x00
"SPI","result",21.239181,0.006001,0xFF,0x00
"SPI","result",21.245583,0.00599,0xFF,0x00
"SPI","result",21.251973,0.005996,0xFF,0x00
"SPI","result",21.25837,0.006001,0xFF,0x00
"SPI","result",21.264773,0.005988,0xFF,0x00
"SPI","result",21.271163,0.005996,0xFF,0x00
"SPI","result",21.277559,0.006001,0xFF,0x00
"SPI","result",21.283967,0.005984,0xFF,0x00
"SPI","result",21.290352,0.005995,0xFF,0x00
"SPI","result",21.296748,0.006001,0xFF,0x00
"SPI","result",21.30315,0.005989,0xFF,0x00
"SPI","result",21.309541,0.005996,0xFF,0x00
"SPI","result",21.315937,0.006002,0xFF,0x00
"SPI","result",21.322339,0.005989,0xFF,0x00
"SPI","result",21.328729,0.005996,0xFF,0x00
"SPI","result",21.335127,0.006001,0xFF,0x00
"SPI","result",21.341531,0.005992,0xFF,0x00
"SPI","result",21.347918,0.005997,0xFF,0x00
"SPI","result",21.354318,0.005992,0xFF,0x00
"SPI","result",21.360717,0.005996,0xFF,0x00
"SPI","result",21.367114,0.005989,0xFF,0x00
"SPI","result",21.373504,0.005995,0xFF,0x00
"SPI","result",21.379901,0.006001,0xFF,0x00
"SPI","result",21.386303,0.00599,0xFF,0x00
"SPI","result",21.392693,0.005996,0xFF,0x00
"SPI","result",21.39909,0.006001,0xFF,0x00
"SPI","result",21.405492,0.005989,0xFF,0x00
"SPI","result",21.411883,0.005995,0xFF,0x00
"SPI","result",21.418279,0.006001,0xFF,0x00
"SPI","result",21.424681,0.00599,0xFF,0x00
"SPI","result",21.431071,0.005996,0xFF,0x00
"SPI","result",21.437469,0.005999,0xFF,0x00
"SPI","result",21.443873,0.005986,0xFF,0x00
"SPI","result",21.450261,0.005995,0xFF,0x00
"SPI","result",21.456657,0.006,0xFF,0x00
"SPI","result",21.463058,0.006011,0xFF,0x00
"SPI","result",21.46945,0.005995,0xFF,0x00
"SPI","result",21.475846,0.005999,0xFF,0x00
"SPI","result",21.482247,0.00599,0xFF,0x00
"SPI","result",21.488638,0.005996,0xFF,0x00
"SPI","result",21.495035,0.006,0xFF,0x00
"SPI","result",21.501436,0.005995,0xFF,0x00
"SPI","result",21.507827,0.005996,0xFF,0x00
"SPI","result",21.514225,0.005995,0xFF,0x00
"SPI","result",21.520624,0.005996,0xFF,0x00
"SPI","result",21.527021,0.005992,0xFF,0x00
"SPI","result",21.533414,0.005995,0xFF,0x00
"SPI","result",21.53981,0.006,0xFF,0x00
"SPI","result",21.54621,0.005992,0xFF,0x00
"SPI","result",21.552603,0.005995,0xFF,0x00
"SPI","result",21.558999,0.006,0xFF,0x00
"SPI","result",21.565399,0.005992,0xFF,0x00
"SPI","result",21.571792,0.005995,0xFF,0x00
"SPI","result",21.578188,0.006,0xFF,0x00
"SPI","result",21.584588,0.005992,0xFF,0x00
"SPI","result",21.590981,0.005999,0xFF,0x00
"SPI","result",21.597377,0.006001,0xFF,0x00
"SPI","result",21.603783,0.005985,0xFF,0x00
"SPI","result",21.61017,0.005995,0xFF,0x00
"SPI","result",21.616566,0.006,0xFF,0x00
"SPI","result",21.622967,0.00599,0xFF,0x00
"SPI","result",21.629359,0.005996,0xFF,0x00
"SPI","result",21.635755,0.006,0xFF,0x00
"SPI","result",21.642156,0.00599,0xFF,0x00
"SPI","result",21.648547,0.005996,0xFF,0x00
"SPI","result",21.654944,0.006001,0xFF,0x00
"SPI","result",21.661347,0.005995,0xFF,0x00
"SPI","result",21.667736,0.005997,0xFF,0x00
"SPI","result",21.674134,0.005998,0xFF,0x00
"SPI","result",21.680534,0.005997,0xFF,0x00
"SPI","result",21.686932,0.00599,0xFF,0x00
"SPI","result",21.693323,0.005995,0xFF,0x00
"SPI","result",21.699719,0.006001,0xFF,0x00
"SPI","result",21.706121,0.006008,0xFF,0x00
"SPI","result",21.712512,0.005996,0xFF,0x00
"SPI","result",21.718908,0.006001,0xFF,0x00
"SPI","result",21.72531,0.00599,0xFF,0x00
"SPI","result",21.7317,0.005997,0xFF,0x00
"SPI","result",21.738097,0.006001,0xFF,0x00
"SPI","result",21.744499,0.00599,0xFF,0x00
"SPI","result",21.75089,0.005995,0xFF,0x00
"SPI","result",21.757286,0.006001,0xFF,0x00
"SPI","result",21.763693,0.005985,0xFF,0x00
"SPI","result",21.770079,0.005996,0xFF,0x00
"SPI","result",21.776475,0.006001,0xFF,0x00
"SPI","result",21.782877,0.005989,0xFF,0x00
"SPI","result",21.789268,0.005996,0xFF,0x00
"SPI","result",21.795664,0.006001,0xFF,0x00
"SPI","result",21.802066,0.00599,0xFF,0x00
"SPI","result",21.808456,0.005996,0xFF,0x00
"SPI","result",21.814853,0.006002,0xFF,0x00
"SPI","result",21.821255,0.005996,0xFF,0x00
"SPI","result",21.827645,0.005996,0xFF,0x00
"SPI","result",21.834044,0.005994,0xFF,0x00
"SPI","result",21.840444,0.005996,0xFF,0x00
"SPI","result",21.846841,0.00599,0xFF,0x00
"SPI","result",21.853231,0.005996,0xFF,0x00
"SPI","result",21.859628,0.006001,0xFF,0x00
"SPI","result",21.866031,0.005996,0xFF,0x00
"SPI","result",21.872421,0.005995,0xFF,0x00
"SPI","result",21.878817,0.006001,0xFF,0x00
"SPI","result",21.88522,0.005989,0xFF,0x00
"SPI","result",21.89161,0.005995,0xFF,0x00
"SPI","result",21.898006,0.006001,0xFF,0x00
"SPI","result",21.904408,0.006,0xFF,0x00
"SPI","result",21.910799,0.005995,0xFF,0x00
"SPI","result",21.917195,0.006002,0xFF,0x00
"SPI","result",21.923602,0.006003,0xFF,0x00
"SPI","result",21.929988,0.005995,0xFF,0x00
"SPI","result",21.936384,0.006002,0xFF,0x00
"SPI","result",21.942787,0.005988,0xFF,0x00
"SPI","result",21.949177,0.005995,0xFF,0x00
"SPI","result",21.955573,0.006001,0xFF,0x00
"SPI","result",21.961975,0.005989,0xFF,0x00
"SPI","result",21.968365,0.005997,0xFF,0x00
"SPI","result",21.974762,0.006002,0xFF,0x00
"SPI","result",21.981165,0.005995,0xFF,0x00
"SPI","result",21.987554,0.005997,0xFF,0x00
"SPI","result",21.993952,0.005995,0xFF,0x00
"SPI","result",22.000353,0.006,0xFF,0x00
"SPI","result",22.00675,0.00599,0xFF,0x00
