Time [s],Packet ID,MOSI,MISO
0.000311000000000,0,0xFF,
0.006306000000000,0,0xFF,
0.012702000000000,0,0xFF,
0.019104000000000,0,0xFF,
0.025494000000000,0,0xFF,
0.031891000000000,0,0xFF,
0.038293000000000,0,0xFF,
0.044683000000000,0,0xFF,
0.051080000000000,0,0xFF,
0.057482000000000,0,0xFF,
0.063878000000000,0,0xFF,
0.070286000000000,0,0xFF,
0.076666000000000,0,0xFF,
0.083067000000000,0,0xFF,
0.089458000000000,0,0xFF,
0.095855000000000,0,0xFF,
0.102260000000000,0,0xFF,
0.108648000000000,0,0xFF,
0.115044000000000,0,0xFF,
0.121446000000000,0,0xFF,
0.127836000000000,0,0xFF,
0.134233000000000,0,0xFF,
0.140636000000000,0,0xFF,
0.147026000000000,0,0xFF,
0.153422000000000,0,0xFF,
0.159824000000000,0,0xFF,
0.166214000000000,0,0xFF,
0.172611000000000,0,0xFF,
0.179013000000000,0,0xFF,
0.185412000000000,0,0xFF,
0.191800000000000,0,0xFF,
0.198202000000000,0,0xFF,
0.204592000000000,0,0xFF,
0.210989000000000,0,0xFF,
0.217413000000000,0,0xFF,
0.223787000000000,0,0xFF,
0.230179000000000,0,0xFF,
0.236578000000000,0,0xFF,
0.242977000000000,0,0xFF,
0.249368000000000,0,0xFF,
0.255763000000000,0,0xFF,
0.262166000000000,0,0xFF,
0.268556000000000,0,0xFF,
0.274953000000000,0,0xFF,
0.281354000000000,0,0xFF,
0.287745000000000,0,0xFF,
0.294142000000000,0,0xFF,
0.300544000000000,0,0xFF,
0.306934000000000,0,0xFF,
0.313331000000000,0,0xFF,
0.319733000000000,0,0xFF,
0.326123000000000,0,0xFF,
0.332521000000000,0,0xFF,
0.338922000000000,0,0xFF,
0.345312000000000,0,0xFF,
0.351709000000000,0,0xFF,
0.358111000000000,0,0xFF,
0.364501000000000,0,0xFF,
0.370901000000000,0,0xFF,
0.377300000000000,0,0xFF,
0.383696000000000,0,0xFF,
0.390087000000000,0,0xFF,
0.396484000000000,0,0xFF,
0.402885000000000,0,0xFF,
0.409276000000000,0,0xFF,
0.415673000000000,0,0xFF,
0.422075000000000,0,0xFF,
0.428466000000000,0,0xFF,
0.434862000000000,0,0xFF,
0.441264000000000,0,0xFF,
0.447654000000000,0,0xFF,
0.454051000000000,0,0xFF,
0.460457000000000,0,0xFF,
0.466843000000000,0,0xFF,
0.473240000000000,0,0xFF,
0.479642000000000,0,0xFF,
0.486033000000000,0,0xFF,
0.492429000000000,0,0xFF,
0.498831000000000,0,0xFF,
0.505221000000000,0,0xFF,
0.511618000000000,0,0xFF,
0.518020000000000,0,0xFF,
0.524411000000000,0,0xFF,
0.530822000000000,0,0xFF,
0.537208000000000,0,0xFF,
0.543605000000000,0,0xFF,
0.549997000000000,0,0xFF,
0.556392000000000,0,0xFF,
0.562795000000000,0,0xFF,
0.569185000000000,0,0xFF,
0.575582000000000,0,0xFF,
0.581982000000000,0,0xFF,
0.588374000000000,0,0xFF,
0.594771000000000,0,0xFF,
0.601171000000000,0,0xFF,
0.607564000000000,0,0xFF,
0.613960000000000,0,0xFF,
0.620365000000000,0,0xFF,
0.626753000000000,0,0xFF,
0.633149000000000,0,0xFF,
0.639549000000000,0,0xFF,
0.645948000000000,0,0xFF,
0.652339000000000,0,0xFF,
0.658739000000000,0,0xFF,
0.665130000000000,0,0xFF,
0.671527000000000,0,0xFF,
0.677928000000000,0,0xFF,
0.684319000000000,0,0xFF,
0.690716000000000,0,0xFF,
0.697116000000000,0,0xFF,
0.703513000000000,0,0xFF,
0.709908000000000,0,0xFF,
0.716302000000000,0,0xFF,
0.722702000000000,0,0xFF,
0.729094000000000,0,0xFF,
0.735491000000000,0,0xFF,
0.741891000000000,0,0xFF,
0.748283000000000,0,0xFF,
0.754680000000000,0,0xFF,
0.761080000000000,0,0xFF,
0.767472000000000,0,0xFF,
0.773869000000000,0,0xFF,
0.780274000000000,0,0xFF,
0.786662000000000,0,0xFF,
0.793058000000000,0,0xFF,
0.799461000000000,0,0xFF,
0.805850000000000,0,0xFF,
0.812247000000000,0,0xFF,
0.818649000000000,0,0xFF,
0.825039000000000,0,0xFF,
0.831449000000000,0,0xFF,
0.837838000000000,0,0xFF,
0.844234000000000,0,0xFF,
0.850626000000000,0,0xFF,
0.857021000000000,0,0xFF,
0.863423000000000,0,0xFF,
0.869814000000000,0,0xFF,
0.876210000000000,0,0xFF,
0.882612000000000,0,0xFF,
0.889004000000000,0,0xFF,
0.895399000000000,0,0xFF,
0.901802000000000,0,0xFF,
0.908192000000000,0,0xFF,
0.914589000000000,0,0xFF,
0.920991000000000,0,0xFF,
0.927381000000000,0,0xFF,
0.933778000000000,0,0xFF,
0.940180000000000,0,0xFF,
0.946570000000000,0,0xFF,
0.952967000000000,0,0xFF,
0.959369000000000,0,0xFF,
0.965759000000000,0,0xFF,
0.972156000000000,0,0xFF,
0.978558000000000,0,0xFF,
0.984948000000000,0,0xFF,
0.991345000000000,0,0xFF,
0.997747000000000,0,0xFF,
1.004143000000000,0,0xFF,
1.010534000000000,0,0xFF,
1.016931000000000,0,0xFF,
1.023333000000000,0,0xFF,
1.029723000000000,0,0xFF,
1.036119000000000,0,0xFF,
1.042523000000000,0,0xFF,
1.048921000000000,0,0xFF,
1.055309000000000,0,0xFF,
1.061730000000000,0,0xFF,
1.068101000000000,0,0xFF,
1.074498000000000,0,0xFF,
1.080900000000000,0,0xFF,
1.087292000000000,0,0xFF,
1.093687000000000,0,0xFF,
1.100089000000000,0,0xFF,
1.106480000000000,0,0xFF,
1.112876000000000,0,0xFF,
1.119278000000000,0,0xFF,
1.125668000000000,0,0xFF,
1.132065000000000,0,0xFF,
1.138467000000000,0,0xFF,
1.144857000000000,0,0xFF,
1.151254000000000,0,0xFF,
1.157666000000000,0,0xFF,
1.164053000000000,0,0xFF,
1.170443000000000,0,0xFF,
1.176844000000000,0,0xFF,
1.183242000000000,0,0xFF,
1.189632000000000,0,0xFF,
1.196029000000000,0,0xFF,
1.202430000000000,0,0xFF,
1.208823000000000,0,0xFF,
1.215218000000000,0,0xFF,
1.221623000000000,0,0xFF,
1.228010000000000,0,0xFF,
1.234407000000000,0,0xFF,
1.240813000000000,0,0xFF,
1.247200000000000,0,0xFF,
1.253596000000000,0,0xFF,
1.259998000000000,0,0xFF,
1.266390000000000,0,0xFF,
1.272786000000000,0,0xFF,
1.279187000000000,0,0xFF,
1.285600000000000,0,0xFF,
1.291974000000000,0,0xFF,
1.298376000000000,0,0xFF,
1.304766000000000,0,0xFF,
1.311171000000000,0,0xFF,
1.317564000000000,0,0xFF,
1.323962000000000,0,0xFF,
1.330352000000000,0,0xFF,
1.336749000000000,0,0xFF,
1.343151000000000,0,0xFF,
1.349541000000000,0,0xFF,
1.355938000000000,0,0xFF,
1.362340000000000,0,0xFF,
1.368730000000000,0,0xFF,
1.375127000000000,0,0xFF,
1.381529000000000,0,0xFF,
1.387920000000000,0,0xFF,
1.394316000000000,0,0xFF,
1.400744000000000,0,0xFF,
1.407109000000000,0,0xFF,
1.413505000000000,0,0xFF,
1.419907000000000,0,0xFF,
1.426297000000000,0,0xFF,
1.432694000000000,0,0xFF,
1.439096000000000,0,0xFF,
1.445494000000000,0,0xFF,
1.451894000000000,0,0xFF,
1.458285000000000,0,0xFF,
1.464678000000000,0,0xFF,
1.471072000000000,0,0xFF,
1.477473000000000,0,0xFF,
1.483891000000000,0,0xFF,
1.490261000000000,0,0xFF,
1.496658000000000,0,0xFF,
1.503060000000000,0,0xFF,
1.509450000000000,0,0xFF,
1.515847000000000,0,0xFF,
1.522249000000000,0,0xFF,
1.528639000000000,0,0xFF,
1.535037000000000,0,0xFF,
1.541438000000000,0,0xFF,
1.547828000000000,0,0xFF,
1.554225000000000,0,0xFF,
1.560631000000000,0,0xFF,
1.567018000000000,0,0xFF,
1.573414000000000,0,0xFF,
1.579815000000000,0,0xFF,
1.586206000000000,0,0xFF,
1.592603000000000,0,0xFF,
1.599003000000000,0,0xFF,
1.605395000000000,0,0xFF,
1.611793000000000,0,0xFF,
1.618193000000000,0,0xFF,
1.624589000000000,0,0xFF,
1.630981000000000,0,0xFF,
1.637378000000000,0,0xFF,
1.643779000000000,0,0xFF,
1.650171000000000,0,0xFF,
1.656567000000000,0,0xFF,
1.662967000000000,0,0xFF,
1.669359000000000,0,0xFF,
1.675756000000000,0,0xFF,
1.682156000000000,0,0xFF,
1.688548000000000,0,0xFF,
1.694945000000000,0,0xFF,
1.701346000000000,0,0xFF,
1.707755000000000,0,0xFF,
1.714134000000000,0,0xFF,
1.720535000000000,0,0xFF,
1.726927000000000,0,0xFF,
1.733323000000000,0,0xFF,
1.739724000000000,0,0xFF,
1.746115000000000,0,0xFF,
1.752512000000000,0,0xFF,
1.758912000000000,0,0xFF,
1.765304000000000,0,0xFF,
1.771701000000000,0,0xFF,
1.778102000000000,0,0xFF,
1.784498000000000,0,0xFF,
1.790890000000000,0,0xFF,
1.797286000000000,0,0xFF,
1.803689000000000,0,0xFF,
1.810079000000000,0,0xFF,
1.816475000000000,0,0xFF,
1.822878000000000,0,0xFF,
1.829268000000000,0,0xFF,
1.835665000000000,0,0xFF,
1.842067000000000,0,0xFF,
1.848457000000000,0,0xFF,
1.854854000000000,0,0xFF,
1.861256000000000,0,0xFF,
1.867647000000000,0,0xFF,
1.874043000000000,0,0xFF,
1.880445000000000,0,0xFF,
1.886836000000000,0,0xFF,
1.893232000000000,0,0xFF,
1.899641000000000,0,0xFF,
1.906024000000000,0,0xFF,
1.912421000000000,0,0xFF,
1.918823000000000,0,0xFF,
1.925213000000000,0,0xFF,
1.931610000000000,0,0xFF,
1.938013000000000,0,0xFF,
1.944409000000000,0,0xFF,
1.950799000000000,0,0xFF,
1.957196000000000,0,0xFF,
1.963598000000000,0,0xFF,
1.969989000000000,0,0xFF,
1.976384000000000,0,0xFF,
1.982787000000000,0,0xFF,
1.989178000000000,0,0xFF,
1.995575000000000,0,0xFF,
2.001976000000000,0,0xFF,
2.008367000000000,0,0xFF,
2.014763000000000,0,0xFF,
2.021170000000000,0,0xFF,
2.027556000000000,0,0xFF,
2.033952000000000,0,0xFF,
2.040354000000000,0,0xFF,
2.046745000000000,0,0xFF,
2.053149000000000,0,0xFF,
2.059543000000000,0,0xFF,
2.065933000000000,0,0xFF,
2.072330000000000,0,0xFF,
2.078732000000000,0,0xFF,
2.085122000000000,0,0xFF,
2.091519000000000,0,0xFF,
2.097920000000000,0,0xFF,
2.104318000000000,0,0xFF,
2.110709000000000,0,0xFF,
2.117104000000000,0,0xFF,
2.123507000000000,0,0xFF,
2.129897000000000,0,0xFF,
2.136294000000000,0,0xFF,
2.142696000000000,0,0xFF,
2.149087000000000,0,0xFF,
2.155483000000000,0,0xFF,
2.161885000000000,0,0xFF,
2.168275000000000,0,0xFF,
2.174672000000000,0,0xFF,
2.181078000000000,0,0xFF,
2.187473000000000,0,0xFF,
2.193861000000000,0,0xFF,
2.200263000000000,0,0xFF,
2.206655000000000,0,0xFF,
2.213050000000000,0,0xFF,
2.219452000000000,0,0xFF,
2.225843000000000,0,0xFF,
2.232239000000000,0,0xFF,
2.238641000000000,0,0xFF,
2.245031000000000,0,0xFF,
2.251428000000000,0,0xFF,
2.257829000000000,0,0xFF,
2.264227000000000,0,0xFF,
2.270617000000000,0,0xFF,
2.277014000000000,0,0xFF,
2.283416000000000,0,0xFF,
2.289807000000000,0,0xFF,
2.296203000000000,0,0xFF,
2.302605000000000,0,0xFF,
2.308996000000000,0,0xFF,
2.315392000000000,0,0xFF,
2.321797000000000,0,0xFF,
2.328184000000000,0,0xFF,
2.334581000000000,0,0xFF,
2.340983000000000,0,0xFF,
2.347374000000000,0,0xFF,
2.353770000000000,0,0xFF,
2.360172000000000,0,0xFF,
2.366562000000000,0,0xFF,
2.372962000000000,0,0xFF,
2.379360000000000,0,0xFF,
2.385751000000000,0,0xFF,
2.392148000000000,0,0xFF,
2.398551000000000,0,0xFF,
2.404947000000000,0,0xFF,
2.411337000000000,0,0xFF,
2.417733000000000,0,0xFF,
2.424136000000000,0,0xFF,
2.430526000000000,0,0xFF,
2.436923000000000,0,0xFF,
2.443325000000000,0,0xFF,
2.449715000000000,0,0xFF,
2.456115000000000,0,0xFF,
2.462514000000000,0,0xFF,
2.468905000000000,0,0xFF,
2.475301000000000,0,0xFF,
2.481703000000000,0,0xFF,
2.488094000000000,0,0xFF,
2.494490000000000,0,0xFF,
2.500892000000000,0,0xFF,
2.507282000000000,0,0xFF,
2.513700000000000,0,0xFF,
2.520081000000000,0,0xFF,
2.526471000000000,0,0xFF,
2.532868000000000,0,0xFF,
2.539270000000000,0,0xFF,
2.545660000000000,0,0xFF,
2.552057000000000,0,0xFF,
2.558459000000000,0,0xFF,
2.564854000000000,0,0xFF,
2.571246000000000,0,0xFF,
2.577643000000000,0,0xFF,
2.584043000000000,0,0xFF,
2.590436000000000,0,0xFF,
2.596832000000000,0,0xFF,
2.603232000000000,0,0xFF,
2.609624000000000,0,0xFF,
2.616021000000000,0,0xDF,
2.622421000000000,0,0x92,
2.628814000000000,0,0x00,
2.635210000000000,0,0x06,
2.641625000000000,0,0x00,
2.648003000000000,0,0x00,
2.654399000000000,0,0x00,
2.660800000000000,0,0x00,
2.667192000000000,0,0x1F,
2.673588000000000,0,0xBF,
2.679989000000000,0,0xFF,
2.686381000000000,0,0xFF,
2.692777000000000,0,0xFF,
2.699178000000000,0,0xFF,
2.705569000000000,0,0xFF,
2.711966000000000,0,0xFF,
2.718366000000000,0,0xFF,
2.724763000000000,0,0xFF,
2.731155000000000,0,0xFF,
2.737552000000000,0,0xFF,
2.743954000000000,0,0xFF,
2.750344000000000,0,0xFF,
2.756741000000000,0,0xFF,
2.763142000000000,0,0xFF,
2.769533000000000,0,0xFF,
2.775930000000000,0,0xFF,
2.782331000000000,0,0xFF,
2.788722000000000,0,0xFF,
2.795119000000000,0,0xFF,
2.801526000000000,0,0xFF,
2.807931000000000,0,0xFF,
2.814308000000000,0,0xFF,
2.820710000000000,0,0xFF,
2.827101000000000,0,0xFF,
2.833497000000000,0,0xFF,
2.839899000000000,0,0xFF,
2.846289000000000,0,0xFF,
2.852687000000000,0,0xFF,
2.859088000000000,0,0xFF,
2.865478000000000,0,0xFF,
2.871875000000000,0,0xFF,
2.878277000000000,0,0xFF,
2.884674000000000,0,0xFF,
2.891064000000000,0,0xFF,
2.897461000000000,0,0xFF,
2.903863000000000,0,0xFF,
2.910254000000000,0,0xFF,
2.916650000000000,0,0xFF,
2.923052000000000,0,0xFF,
2.929442000000000,0,0xFF,
2.935839000000000,0,0xFF,
2.942241000000000,0,0xFF,
2.948632000000000,0,0xFF,
2.955028000000000,0,0xEF,
2.961435000000000,0,0xC9,
2.967820000000000,0,0x00,
2.974217000000000,0,0x0B,
2.980619000000000,0,0x00,
2.987010000000000,0,0x00,
2.993406000000000,0,0x00,
2.999808000000000,0,0x00,
3.006198000000000,0,0x0F,
3.012595000000000,0,0xDF,
3.018997000000000,0,0xFF,
3.025387000000000,0,0xFF,
3.031784000000000,0,0xFF,
3.038186000000000,0,0xFF,
3.044583000000000,0,0xFF,
3.050973000000000,0,0xFF,
3.057370000000000,0,0xFF,
3.063772000000000,0,0xFF,
3.070163000000000,0,0xFF,
3.076559000000000,0,0xFF,
3.082961000000000,0,0xFF,
3.089351000000000,0,0xFF,
3.095749000000000,0,0xFF,
3.102150000000000,0,0xFF,
3.108542000000000,0,0xFF,
3.114937000000000,0,0xFF,
3.121339000000000,0,0xFF,
3.127730000000000,0,0xFF,
3.134126000000000,0,0xFF,
3.140528000000000,0,0xFF,
3.146918000000000,0,0xFF,
3.153315000000000,0,0xFF,
3.159717000000000,0,0xFF,
3.166108000000000,0,0xFF,
3.172512000000000,0,0xFF,
3.178906000000000,0,0xFF,
3.185302000000000,0,0xFF,
3.191693000000000,0,0xFF,
3.198089000000000,0,0xFF,
3.204500000000000,0,0xFF,
3.210882000000000,0,0xFF,
3.217279000000000,0,0xFF,
3.223681000000000,0,0xFF,
3.230071000000000,0,0xFF,
3.236468000000000,0,0xFF,
3.242870000000000,0,0xFF,
3.249261000000000,0,0xFF,
3.255657000000000,0,0xFF,
3.262059000000000,0,0xFF,
3.268450000000000,0,0xFF,
3.274846000000000,0,0xFF,
3.281248000000000,0,0xFF,
3.287639000000000,0,0xFF,
3.294035000000000,0,0xFF,
3.300437000000000,0,0xFF,
3.306827000000000,0,0xFF,
3.313225000000000,0,0xFF,
3.319639000000000,0,0xFF,
3.326016000000000,0,0xFF,
3.332413000000000,0,0xFF,
3.338815000000000,0,0xFF,
3.345212000000000,0,0xFF,
3.351602000000000,0,0xFF,
3.357999000000000,0,0xFF,
3.364401000000000,0,0xFF,
3.370791000000000,0,0xFF,
3.377188000000000,0,0xFF,
3.383602000000000,0,0xFF,
3.389981000000000,0,0xFF,
3.396377000000000,0,0xFF,
3.402779000000000,0,0xFF,
3.409169000000000,0,0xFF,
3.415566000000000,0,0xFF,
3.421968000000000,0,0xFF,
3.428358000000000,0,0xFF,
3.434755000000000,0,0xFF,
3.441157000000000,0,0xFF,
3.447548000000000,0,0xFF,
3.453944000000000,0,0xFF,
3.460346000000000,0,0xFF,
3.466736000000000,0,0xFF,
3.473133000000000,0,0xFF,
3.479535000000000,0,0xFF,
3.485926000000000,0,0xFF,
3.492321000000000,0,0xFF,
3.498723000000000,0,0xFF,
3.505121000000000,0,0xFF,
3.511512000000000,0,0xFF,
3.517908000000000,0,0xFF,
3.524310000000000,0,0xFF,
3.530700000000000,0,0xFF,
3.537100000000000,0,0xFF,
3.543499000000000,0,0xFF,
3.549890000000000,0,0xFF,
3.556286000000000,0,0xFF,
3.562688000000000,0,0xFF,
3.569079000000000,0,0xFF,
3.575475000000000,0,0xFF,
3.581881000000000,0,0xFF,
3.588268000000000,0,0xFF,
3.594664000000000,0,0xFF,
3.601065000000000,0,0xFF,
3.607457000000000,0,0xFF,
3.613853000000000,0,0xFF,
3.620255000000000,0,0xFF,
3.626645000000000,0,0xFF,
3.633042000000000,0,0xFF,
3.639443000000000,0,0xFF,
3.645835000000000,0,0xFF,
3.652231000000000,0,0xFF,
3.658631000000000,0,0xFF,
3.665028000000000,0,0xFF,
3.671420000000000,0,0xFF,
3.677817000000000,0,0xFF,
3.684218000000000,0,0xFF,
3.690610000000000,0,0xFF,
3.697006000000000,0,0xFF,
3.703406000000000,0,0xFF,
3.709798000000000,0,0xFF,
3.716195000000000,0,0xFF,
3.722596000000000,0,0xFF,
3.728988000000000,0,0xFF,
3.735384000000000,0,0xFF,
3.741792000000000,0,0xFF,
3.748177000000000,0,0xFF,
3.754573000000000,0,0xFF,
3.760974000000000,0,0xFF,
3.767375000000000,0,0xFF,
3.773762000000000,0,0xFF,
3.780163000000000,0,0xFF,
3.786554000000000,0,0xFF,
3.792953000000000,0,0xFF,
3.799375000000000,0,0xFF,
3.805750000000000,0,0xFF,
3.812140000000000,0,0xFF,
3.818537000000000,0,0xFF,
3.824939000000000,0,0xFF,
3.831330000000000,0,0xFF,
3.837726000000000,0,0xFF,
3.844128000000000,0,0xFF,
3.850519000000000,0,0xFF,
3.856915000000000,0,0xFF,
3.863317000000000,0,0xFF,
3.869708000000000,0,0xFF,
3.876107000000000,0,0xFF,
3.882507000000000,0,0xFF,
3.888896000000000,0,0xFF,
3.895294000000000,0,0xFF,
3.901695000000000,0,0xFF,
3.908087000000000,0,0xFF,
3.914482000000000,0,0xFF,
3.920884000000000,0,0xFE,
3.927293000000000,0,0xFC,
3.933671000000000,0,0x90,
3.940073000000000,0,0x00,
3.946463000000000,0,0xA0,
3.952860000000000,0,0x00,
3.959262000000000,0,0x00,
3.965659000000000,0,0x00,
3.972049000000000,0,0x00,
3.978446000000000,0,0xFD,
3.984848000000000,0,0xFF,
3.991238000000000,0,0xFF,
3.997635000000000,0,0xFF,
4.004037000000000,0,0xFF,
4.010427000000000,0,0xFF,
4.016842000000000,0,0xFF,
4.023226000000000,0,0xFF,
4.029617000000000,0,0xFF,
4.036014000000000,0,0xFF,
4.042415000000000,0,0xFF,
4.048806000000000,0,0xFF,
4.055202000000000,0,0xFF,
4.061604000000000,0,0xFF,
4.067995000000000,0,0xFF,
4.074392000000000,0,0xFF,
4.080796000000000,0,0xFF,
4.087184000000000,0,0xFF,
4.093580000000000,0,0xFF,
4.099982000000000,0,0xFF,
4.106373000000000,0,0xFF,
4.112770000000000,0,0xFF,
4.119171000000000,0,0xFF,
4.125568000000000,0,0xFF,
4.131958000000000,0,0xFF,
4.138355000000000,0,0xFF,
4.144757000000000,0,0xFF,
4.151148000000000,0,0xFF,
4.157544000000000,0,0xFF,
4.163946000000000,0,0xFF,
4.170337000000000,0,0xFF,
4.176733000000000,0,0xFF,
4.183136000000000,0,0xFF,
4.189526000000000,0,0xFF,
4.195922000000000,0,0xFF,
4.202329000000000,0,0xFF,
4.208715000000000,0,0xFF,
4.215117000000000,0,0xFF,
4.221513000000000,0,0xFF,
4.227904000000000,0,0xFF,
4.234311000000000,0,0xFF,
4.240713000000000,0,0xFF,
4.247092000000000,0,0xFF,
4.253489000000000,0,0xFF,
4.259891000000000,0,0xFF,
4.266281000000000,0,0xFF,
4.272678000000000,0,0xFF,
4.279079000000000,0,0xFF,
4.285477000000000,0,0xFF,
4.291868000000000,0,0xFF,
4.298264000000000,0,0xFF,
4.304666000000000,0,0xFF,
4.311057000000000,0,0xFF,
4.317453000000000,0,0xFF,
4.323855000000000,0,0xFF,
4.330246000000000,0,0xFF,
4.336643000000000,0,0xFF,
4.343044000000000,0,0x7E,
4.349444000000000,0,0x48,
4.355831000000000,0,0x00,
4.362239000000000,0,0x10,
4.368624000000000,0,0x00,
4.375020000000000,0,0x00,
4.381422000000000,0,0x00,
4.387813000000000,0,0x00,
4.394210000000000,0,0x7E,
4.400612000000000,0,0xFF,
4.407001000000000,0,0xFF,
4.413398000000000,0,0xFF,
4.419800000000000,0,0xFF,
4.426190000000000,0,0xFF,
4.432587000000000,0,0xFF,
4.438989000000000,0,0xFF,
4.445386000000000,0,0xFF,
4.451776000000000,0,0xFF,
4.458173000000000,0,0xFF,
4.464575000000000,0,0xFF,
4.470965000000000,0,0xFF,
4.477362000000000,0,0xFF,
4.483768000000000,0,0xFF,
4.490154000000000,0,0xFF,
4.496551000000000,0,0xFF,
4.502954000000000,0,0xFF,
4.509344000000000,0,0xFF,
4.515740000000000,0,0xFF,
4.522147000000000,0,0xFF,
4.528533000000000,0,0xFF,
4.534929000000000,0,0xFF,
4.541331000000000,0,0xFF,
4.547722000000000,0,0xFF,
4.554119000000000,0,0xFF,
4.560520000000000,0,0xFF,
4.566925000000000,0,0xFF,
4.573307000000000,0,0xFF,
4.579708000000000,0,0xFF,
4.586105000000000,0,0xFF,
4.592496000000000,0,0xFF,
4.598893000000000,0,0xFF,
4.605293000000000,0,0xFF,
4.611705000000000,0,0xFF,
4.618082000000000,0,0xFF,
4.624483000000000,0,0xFF,
4.630874000000000,0,0xFF,
4.637271000000000,0,0xFF,
4.643672000000000,0,0xFF,
4.650063000000000,0,0xFF,
4.656460000000000,0,0xFF,
4.662861000000000,0,0xFF,
4.669253000000000,0,0xFF,
4.675649000000000,0,0xFF,
4.682050000000000,0,0xFF,
4.688442000000000,0,0xFF,
4.694838000000000,0,0xFF,
4.701239000000000,0,0xFF,
4.707630000000000,0,0xFF,
4.714027000000000,0,0xFF,
4.720428000000000,0,0xFF,
4.726819000000000,0,0xFF,
4.733216000000000,0,0xFF,
4.739617000000000,0,0xFF,
4.746013000000000,0,0xFF,
4.752405000000000,0,0xFF,
4.758802000000000,0,0xFF,
4.765202000000000,0,0xFF,
4.771595000000000,0,0xFF,
4.777991000000000,0,0xFF,
4.784392000000000,0,0xFF,
4.790783000000000,0,0xFF,
4.797180000000000,0,0xFF,
4.803582000000000,0,0xFF,
4.809973000000000,0,0xFF,
4.816369000000000,0,0xFF,
4.822774000000000,0,0xFF,
4.829162000000000,0,0xFF,
4.835559000000000,0,0xFF,
4.841960000000000,0,0xFF,
4.848351000000000,0,0xFF,
4.854747000000000,0,0xFF,
4.861149000000000,0,0xFF,
4.867539000000000,0,0xFF,
4.873937000000000,0,0xFF,
4.880338000000000,0,0xFF,
4.886728000000000,0,0xFF,
4.893125000000000,0,0xFF,
4.899528000000000,0,0xFF,
4.905924000000000,0,0xFF,
4.912336000000000,0,0xFF,
4.918711000000000,0,0xFF,
4.925114000000000,0,0xFF,
4.931504000000000,0,0xFF,
4.937900000000000,0,0xFF,
4.944303000000000,0,0xFF,
4.950692000000000,0,0xFF,
4.957089000000000,0,0xFF,
4.963491000000000,0,0xFF,
4.969882000000000,0,0xFF,
4.976279000000000,0,0xFF,
4.982685000000000,0,0xFF,
4.989090000000000,0,0xFF,
4.995467000000000,0,0xFF,
5.001869000000000,0,0xFF,
5.008261000000000,0,0xFF,
5.014656000000000,0,0xFF,
5.021058000000000,0,0xFF,
5.027456000000000,0,0xFF,
5.033845000000000,0,0xFF,
5.040248000000000,0,0xFF,
5.046638000000000,0,0xFF,
5.053035000000000,0,0xFF,
5.059436000000000,0,0xFF,
5.065833000000000,0,0xFF,
5.072223000000000,0,0xFF,
5.078620000000000,0,0xFF,
5.085022000000000,0,0xFF,
5.091413000000000,0,0xFF,
5.097809000000000,0,0xFF,
5.104211000000000,0,0xFF,
5.110601000000000,0,0xFF,
5.116998000000000,0,0xFF,
5.123400000000000,0,0xFF,
5.129791000000000,0,0xFF,
5.136187000000000,0,0xFF,
5.142594000000000,0,0xFF,
5.148980000000000,0,0xFF,
5.155376000000000,0,0xFF,
5.161781000000000,0,0xFF,
5.168183000000000,0,0xFF,
5.174565000000000,0,0xFF,
5.180968000000000,0,0xFF,
5.187357000000000,0,0xFF,
5.193754000000000,0,0xFF,
5.200158000000000,0,0xFF,
5.206546000000000,0,0xFF,
5.212944000000000,0,0xFF,
5.219344000000000,0,0xFF,
5.225742000000000,0,0xFF,
5.232133000000000,0,0xFF,
5.238529000000000,0,0xFF,
5.244931000000000,0,0xFF,
5.251322000000000,0,0xFF,
5.257718000000000,0,0xFF,
5.264120000000000,0,0xFF,
5.270511000000000,0,0xFF,
5.276907000000000,0,0xFF,
5.283309000000000,0,0xFF,
5.289700000000000,0,0xFF,
5.296099000000000,0,0xFF,
5.302503000000000,0,0xFF,
5.308889000000000,0,0xFF,
5.315285000000000,0,0xFF,
5.321687000000000,0,0xFF,
5.328077000000000,0,0xFF,
5.334474000000000,0,0xFF,
5.340877000000000,0,0xFF,
5.347267000000000,0,0xFF,
5.353663000000000,0,0xFF,
5.360066000000000,0,0xFF,
5.366462000000000,0,0xFF,
5.372853000000000,0,0xFF,
5.379250000000000,0,0xFF,
5.385651000000000,0,0xFF,
5.392041000000000,0,0xFF,
5.398438000000000,0,0xFF,
5.404840000000000,0,0xFF,
5.411230000000000,0,0xFF,
5.417627000000000,0,0xFF,
5.424030000000000,0,0xFF,
5.430428000000000,0,0xFF,
5.436816000000000,0,0xFF,
5.443218000000000,0,0xFF,
5.449609000000000,0,0xFF,
5.456005000000000,0,0xFF,
5.462407000000000,0,0xFF,
5.468798000000000,0,0xFF,
5.475194000000000,0,0xFF,
5.481596000000000,0,0xFF,
5.487986000000000,0,0xFF,
5.494383000000000,0,0xFF,
5.500786000000000,0,0xFF,
5.507175000000000,0,0xFF,
5.513572000000000,0,0xFF,
5.519974000000000,0,0xFF,
5.526371000000000,0,0xFF,
5.532762000000000,0,0xFF,
5.539158000000000,0,0xFF,
5.545560000000000,0,0xFF,
5.551951000000000,0,0xFF,
5.558347000000000,0,0xFF,
5.564771000000000,0,0xFF,
5.571140000000000,0,0xDF,
5.577536000000000,0,0x92,
5.583936000000000,0,0x00,
5.590329000000000,0,0x14,
5.596725000000000,0,0x00,
5.603126000000000,0,0x00,
5.609518000000000,0,0x00,
5.615915000000000,0,0x00,
5.622315000000000,0,0x1F,
5.628707000000000,0,0xBF,
5.635104000000000,0,0xFF,
5.641504000000000,0,0xFF,
5.647895000000000,0,0xFF,
5.654292000000000,0,0xFF,
5.660693000000000,0,0xFF,
5.667084000000000,0,0xFF,
5.673481000000000,0,0xFF,
5.679882000000000,0,0xFF,
5.686279000000000,0,0xFF,
5.692670000000000,0,0xFF,
5.699070000000000,0,0xFF,
5.705468000000000,0,0xFF,
5.711859000000000,0,0xFF,
5.718256000000000,0,0xFF,
5.724657000000000,0,0xFF,
5.731049000000000,0,0xFF,
5.737445000000000,0,0xFF,
5.743846000000000,0,0xFF,
5.750238000000000,0,0xFF,
5.756634000000000,0,0xFF,
5.763040000000000,0,0xFF,
5.769427000000000,0,0xFF,
5.775823000000000,0,0xFF,
5.782224000000000,0,0xFF,
5.788616000000000,0,0xFF,
5.795012000000000,0,0xFF,
5.801414000000000,0,0xFF,
5.807804000000000,0,0xFF,
5.814201000000000,0,0xFF,
5.820604000000000,0,0xFF,
5.826993000000000,0,0xFF,
5.833399000000000,0,0xFF,
5.839793000000000,0,0xFF,
5.846189000000000,0,0xFF,
5.852580000000000,0,0xFF,
5.858976000000000,0,0xFF,
5.865378000000000,0,0xFF,
5.871769000000000,0,0xFF,
5.878167000000000,0,0xFF,
5.884567000000000,0,0xFF,
5.890958000000000,0,0xFF,
5.897355000000000,0,0xFF,
5.903756000000000,0,0xFF,
5.910147000000000,0,0xFF,
5.916544000000000,0,0xFF,
5.922950000000000,0,0xFF,
5.929336000000000,0,0xFF,
5.935732000000000,0,0xFF,
5.942134000000000,0,0xFF,
5.948525000000000,0,0xFF,
5.954921000000000,0,0xFF,
5.961323000000000,0,0xFF,
5.967722000000000,0,0xFF,
5.974110000000000,0,0xFF,
5.980513000000000,0,0xFF,
5.986902000000000,0,0xFF,
5.993299000000000,0,0xFF,
5.999701000000000,0,0xFF,
6.006098000000000,0,0xFF,
6.012504000000000,0,0xFF,
6.018885000000000,0,0xFF,
6.025287000000000,0,0xFF,
6.031678000000000,0,0xFF,
6.038074000000000,0,0xFF,
6.044476000000000,0,0xFF,
6.050867000000000,0,0xFF,
6.057263000000000,0,0xFF,
6.063665000000000,0,0xFF,
6.070056000000000,0,0xFF,
6.076452000000000,0,0xFF,
6.082859000000000,0,0xFF,
6.089245000000000,0,0xFF,
6.095641000000000,0,0xFF,
6.102044000000000,0,0xFF,
6.108433000000000,0,0xFF,
6.114831000000000,0,0xFF,
6.121233000000000,0,0xFF,
6.127623000000000,0,0xFF,
6.134020000000000,0,0xFF,
6.140421000000000,0,0xFF,
6.146818000000000,0,0xFF,
6.153209000000000,0,0xFF,
6.159605000000000,0,0xFF,
6.166007000000000,0,0xFF,
6.172398000000000,0,0xFF,
6.178794000000000,0,0xFF,
6.185196000000000,0,0xFF,
6.191598000000000,0,0xFF,
6.197983000000000,0,0xFF,
6.204385000000000,0,0xFF,
6.210776000000000,0,0xFF,
6.217172000000000,0,0xFF,
6.223574000000000,0,0xFF,
6.229965000000000,0,0xFF,
6.236361000000000,0,0xFF,
6.242763000000000,0,0xFF,
6.249154000000000,0,0xFF,
6.255551000000000,0,0xFF,
6.261952000000000,0,0xFF,
6.268343000000000,0,0xFF,
6.274739000000000,0,0xFF,
6.281141000000000,0,0xFF,
6.287531000000000,0,0xFF,
6.293928000000000,0,0xFF,
6.300331000000000,0,0xFF,
6.306727000000000,0,0xFF,
6.313117000000000,0,0xFF,
6.319515000000000,0,0xFF,
6.325916000000000,0,0xFF,
6.332306000000000,0,0xFF,
6.338704000000000,0,0xFE,
6.345105000000000,0,0xFC,
6.351496000000000,0,0x90,
6.357914000000000,0,0x00,
6.364307000000000,0,0xB0,
6.370685000000000,0,0x00,
6.377081000000000,0,0x00,
6.383483000000000,0,0x00,
6.389874000000000,0,0x00,
6.396270000000000,0,0xFD,
6.402672000000000,0,0xFF,
6.409063000000000,0,0xFF,
6.415459000000000,0,0xFF,
6.421861000000000,0,0xFF,
6.428251000000000,0,0xFF,
6.434649000000000,0,0xFF,
6.441050000000000,0,0xFF,
6.447440000000000,0,0xFF,
6.453838000000000,0,0xFF,
6.460239000000000,0,0xFF,
6.466636000000000,0,0xFF,
6.473041000000000,0,0xFF,
6.479423000000000,0,0xFF,
6.485825000000000,0,0xFF,
6.492216000000000,0,0xFF,
6.498615000000000,0,0xFF,
6.505014000000000,0,0xFF,
6.511405000000000,0,0xFF,
6.517801000000000,0,0xFF,
6.524203000000000,0,0xFF,
6.530594000000000,0,0xFF,
6.536990000000000,0,0xFF,
6.543397000000000,0,0xFF,
6.549783000000000,0,0xFF,
6.556179000000000,0,0xFF,
6.562581000000000,0,0xFF,
6.568972000000000,0,0xFF,
6.575369000000000,0,0xFF,
6.581769000000000,0,0xFF,
6.588160000000000,0,0xFF,
6.594557000000000,0,0xFF,
6.600958000000000,0,0xFF,
6.607349000000000,0,0xFF,
6.613747000000000,0,0xFF,
6.620147000000000,0,0xFF,
6.626544000000000,0,0xFF,
6.632943000000000,0,0xFF,
6.639332000000000,0,0xFF,
6.645733000000000,0,0xFF,
6.652125000000000,0,0xFF,
6.658521000000000,0,0xFF,
6.664922000000000,0,0xFF,
6.671314000000000,0,0xFF,
6.677710000000000,0,0xFF,
6.684112000000000,0,0xFF,
6.690503000000000,0,0xFF,
6.696900000000000,0,0xFF,
6.703312000000000,0,0xFF,
6.709692000000000,0,0xFF,
6.716089000000000,0,0xFF,
6.722489000000000,0,0xFF,
6.728881000000000,0,0xFF,
6.735278000000000,0,0xFF,
6.741678000000000,0,0xFF,
6.748069000000000,0,0xFF,
6.754467000000000,0,0xFF,
6.760867000000000,0,0xFF,
6.767259000000000,0,0xFF,
6.773655000000000,0,0xFF,
6.780056000000000,0,0xFF,
6.786454000000000,0,0xFF,
6.792845000000000,0,0xFF,
6.799241000000000,0,0xFF,
6.805644000000000,0,0xFF,
6.812034000000000,0,0xFF,
6.818450000000000,0,0xFF,
6.824832000000000,0,0xFF,
6.831223000000000,0,0xFF,
6.837619000000000,0,0xFF,
6.844024000000000,0,0xFF,
6.850413000000000,0,0xFF,
6.856808000000000,0,0xFF,
6.863210000000000,0,0xFF,
6.869601000000000,0,0xFF,
6.875997000000000,0,0xFF,
6.882399000000000,0,0xFF,
6.888790000000000,0,0xFF,
6.895186000000000,0,0xFF,
6.901588000000000,0,0x7E,
6.907987000000000,0,0x48,
6.914376000000000,0,0x00,
6.920778000000000,0,0x18,
6.927174000000000,0,0x00,
6.933576000000000,0,0x00,
6.939961000000000,0,0x00,
6.946363000000000,0,0x00,
6.952753000000000,0,0x7E,
6.959150000000000,0,0xFF,
6.965552000000000,0,0xFF,
6.971943000000000,0,0xFF,
6.978339000000000,0,0xFF,
6.984741000000000,0,0xFF,
6.991132000000000,0,0xFF,
6.997528000000000,0,0xFF,
7.003930000000000,0,0xFF,
7.010321000000000,0,0xFF,
7.016718000000000,0,0xFF,
7.023119000000000,0,0xFF,
7.029510000000000,0,0xFF,
7.035906000000000,0,0xFF,
7.042311000000000,0,0xFF,
7.048698000000000,0,0xFF,
7.055095000000000,0,0xFF,
7.061497000000000,0,0xFF,
7.067888000000000,0,0xFF,
7.074285000000000,0,0xFF,
7.080687000000000,0,0xFF,
7.087083000000000,0,0xFF,
7.093474000000000,0,0xFF,
7.099870000000000,0,0xFF,
7.106272000000000,0,0xFF,
7.112663000000000,0,0xFF,
7.119078000000000,0,0xFF,
7.125461000000000,0,0xFF,
7.131852000000000,0,0xFF,
7.138248000000000,0,0xFF,
7.144650000000000,0,0xFF,
7.151041000000000,0,0xFF,
7.157437000000000,0,0xFF,
7.163840000000000,0,0xFF,
7.170230000000000,0,0xFF,
7.176630000000000,0,0xFF,
7.183029000000000,0,0xFF,
7.189420000000000,0,0xFF,
7.195815000000000,0,0xFF,
7.202218000000000,0,0xFF,
7.208607000000000,0,0xFF,
7.215005000000000,0,0xFF,
7.221407000000000,0,0xFF,
7.227796000000000,0,0xFF,
7.234194000000000,0,0xFF,
7.240595000000000,0,0xFF,
7.246992000000000,0,0xFF,
7.253383000000000,0,0xFF,
7.259779000000000,0,0xFF,
7.266181000000000,0,0xFF,
7.272572000000000,0,0xFF,
7.278968000000000,0,0xFF,
7.285370000000000,0,0xFF,
7.291761000000000,0,0xFF,
7.298157000000000,0,0xFF,
7.304559000000000,0,0xFF,
7.310950000000000,0,0xFF,
7.317346000000000,0,0xFF,
7.323755000000000,0,0xFF,
7.330139000000000,0,0xFF,
7.336536000000000,0,0xFF,
7.342938000000000,0,0xFF,
7.349328000000000,0,0xFF,
7.355725000000000,0,0xFF,
7.362127000000000,0,0xFF,
7.368516000000000,0,0xFF,
7.374914000000000,0,0xFF,
7.381323000000000,0,0xFF,
7.387705000000000,0,0xFF,
7.394103000000000,0,0xFF,
7.400504000000000,0,0xFF,
7.406901000000000,0,0xFF,
7.413292000000000,0,0xFF,
7.419688000000000,0,0xFF,
7.426090000000000,0,0xFF,
7.432481000000000,0,0xFF,
7.438877000000000,0,0xFF,
7.445295000000000,0,0xFF,
7.451671000000000,0,0xFF,
7.458066000000000,0,0xFF,
7.464469000000000,0,0xFF,
7.470859000000000,0,0xFF,
7.477255000000000,0,0xFF,
7.483662000000000,0,0xFF,
7.490048000000000,0,0xFF,
7.496444000000000,0,0xFF,
7.502846000000000,0,0xFF,
7.509246000000000,0,0xFF,
7.515633000000000,0,0xFF,
7.522036000000000,0,0xFF,
7.528425000000000,0,0xFF,
7.534822000000000,0,0xFF,
7.541225000000000,0,0xFF,
7.547637000000000,0,0xFF,
7.554012000000000,0,0xFF,
7.560413000000000,0,0xFF,
7.566809000000000,0,0xFF,
7.573201000000000,0,0xFF,
7.579597000000000,0,0xFF,
7.586001000000000,0,0xFF,
7.592390000000000,0,0xFF,
7.598787000000000,0,0xFF,
7.605187000000000,0,0xFF,
7.611579000000000,0,0xFF,
7.617975000000000,0,0xFF,
7.624376000000000,0,0xFF,
7.630768000000000,0,0xFF,
7.637164000000000,0,0xFF,
7.643565000000000,0,0xFF,
7.649957000000000,0,0xFF,
7.656354000000000,0,0xFF,
7.662754000000000,0,0xDF,
7.669145000000000,0,0x92,
7.675542000000000,0,0x00,
7.681943000000000,0,0x04,
7.688334000000000,0,0x00,
7.694732000000000,0,0x00,
7.701133000000000,0,0x00,
7.707529000000000,0,0x00,
7.713921000000000,0,0x1F,
7.720318000000000,0,0xBF,
7.726718000000000,0,0xFF,
7.733110000000000,0,0xFF,
7.739522000000000,0,0xFE,
7.745907000000000,0,0xFC,
7.752306000000000,0,0x90,
7.758695000000000,0,0x00,
7.765096000000000,0,0xA0,
7.771488000000000,0,0x00,
7.777884000000000,0,0x00,
7.784286000000000,0,0x00,
7.790677000000000,0,0x00,
7.797073000000000,0,0xFD,
7.803475000000000,0,0xFF,
7.809870000000000,0,0xFF,
7.816262000000000,0,0xFF,
7.822664000000000,0,0xFF,
7.829054000000000,0,0xFF,
7.835452000000000,0,0xFF,
7.841853000000000,0,0xFF,
7.848244000000000,0,0xFF,
7.854641000000000,0,0xFF,
7.861043000000000,0,0xFF,
7.867439000000000,0,0xFF,
7.873830000000000,0,0xFF,
7.880226000000000,0,0xFF,
7.886628000000000,0,0xFF,
7.893020000000000,0,0xFF,
7.899415000000000,0,0xFF,
7.905817000000000,0,0xFF,
7.912208000000000,0,0xFF,
7.918605000000000,0,0xFF,
7.925006000000000,0,0xFF,
7.931398000000000,0,0xFF,
7.937793000000000,0,0xFF,
7.944195000000000,0,0xFF,
7.950586000000000,0,0xFF,
7.956982000000000,0,0xFF,
7.963385000000000,0,0xFF,
7.969775000000000,0,0xFF,
7.976172000000000,0,0xFF,
7.982574000000000,0,0xFF,
7.988963000000000,0,0xFF,
7.995383000000000,0,0xFF,
8.001763000000000,0,0xFF,
8.008152000000001,0,0xFF,
8.014549000000001,0,0xFF,
8.020951000000000,0,0xFF,
8.027348000000000,0,0xFF,
8.033739000000001,0,0xFF,
8.040134999999999,0,0xFF,
8.046537000000001,0,0xFF,
8.052928000000000,0,0xFF,
8.059324000000000,0,0xFF,
8.065727000000001,0,0xFF,
8.072117000000000,0,0xFF,
8.078512999999999,0,0xFF,
8.084915000000001,0,0xFF,
8.091305999999999,0,0xFF,
8.097702000000000,0,0xFF,
8.104108999999999,0,0xFF,
8.110495000000000,0,0xFF,
8.116892000000000,0,0xFF,
8.123293000000000,0,0xFF,
8.129686000000000,0,0xFF,
8.136080000000000,0,0xFF,
8.142483000000000,0,0xFF,
8.148872000000001,0,0xFF,
8.155270000000000,0,0xFF,
8.161671999999999,0,0xFF,
8.168062000000001,0,0xFF,
8.174459000000001,0,0xFF,
8.180859999999999,0,0xFF,
8.187270000000000,0,0xFF,
8.193648000000000,0,0xFF,
8.200049000000000,0,0xFF,
8.206446000000000,0,0xFF,
8.212837000000000,0,0xFF,
8.219232999999999,0,0xFF,
8.225635000000000,0,0xFF,
8.232025999999999,0,0xFF,
8.238422000000000,0,0xFF,
8.244825000000001,0,0xFF,
8.251215000000000,0,0xFF,
8.257612000000000,0,0xFF,
8.264018000000000,0,0xFF,
8.270403999999999,0,0xFF,
8.276800000000000,0,0xFF,
8.283201999999999,0,0xFF,
8.289593000000000,0,0xEF,
8.295989000000001,0,0xC9,
8.302391000000000,0,0x00,
8.308781000000000,0,0x0B,
8.315178000000000,0,0x00,
8.321580000000001,0,0x00,
8.327971000000000,0,0x00,
8.334368000000000,0,0x00,
8.340769000000000,0,0x0F,
8.347166000000000,0,0xDF,
8.353557000000000,0,0xFB,
8.359954000000000,0,0xF1,
8.366355000000000,0,0x55,
8.372745999999999,0,0x04,
8.379142000000000,0,0x02,
8.385543999999999,0,0xB5,
8.391935000000000,0,0xA5,
8.398331000000001,0,0x84,
8.404733000000000,0,0x82,
8.411123999999999,0,0x43,
8.417520000000000,0,0xF7,
8.423923000000000,0,0xFF,
8.430313999999999,0,0xFF,
8.436709000000000,0,0xFF,
8.443111999999999,0,0xFF,
8.449502000000001,0,0xFF,
8.455909000000000,0,0xFF,
8.462300000000001,0,0xFF,
8.468690000000000,0,0xFF,
8.475088000000000,0,0xFF,
8.481490000000001,0,0xFF,
8.487887000000001,0,0xFF,
8.494277000000000,0,0xFF,
8.500674000000000,0,0xFF,
8.507076000000000,0,0xFF,
8.513465999999999,0,0xFF,
8.519862000000000,0,0xFF,
8.526263999999999,0,0xFF,
8.532655000000000,0,0xFF,
8.539052000000000,0,0xFF,
8.545453000000000,0,0xFF,
8.551843999999999,0,0xFF,
8.558240000000000,0,0xFF,
8.564641999999999,0,0xFF,
8.571033000000000,0,0xFF,
8.577430000000000,0,0xFF,
8.583830000000001,0,0xFF,
8.590230000000000,0,0xFF,
8.596617999999999,0,0xFF,
8.603019000000000,0,0xFF,
8.609411000000000,0,0xFF,
8.615807999999999,0,0xFF,
8.622208000000001,0,0xFF,
8.628598999999999,0,0xFF,
8.634995999999999,0,0xFF,
8.641397000000000,0,0xFF,
8.647793999999999,0,0xFF,
8.654185999999999,0,0xFF,
8.660591000000000,0,0xFF,
8.666983000000000,0,0xFF,
8.673375000000000,0,0xFF,
8.679771000000001,0,0xFF,
8.686171999999999,0,0xFF,
8.692564000000001,0,0xFF,
8.698960000000000,0,0xFF,
8.705361000000000,0,0xFF,
8.711753000000000,0,0xFF,
8.718149000000000,0,0xFF,
8.724553000000000,0,0xFF,
8.730942000000001,0,0xFF,
8.737337999999999,0,0xFF,
8.743739000000000,0,0xFF,
8.750131000000000,0,0xFF,
8.756527999999999,0,0xFF,
8.762928000000000,0,0xFF,
8.769318999999999,0,0xFF,
8.775715999999999,0,0xFF,
8.782118000000001,0,0xFF,
8.788508000000000,0,0xFF,
8.794905999999999,0,0xFF,
8.801307000000000,0,0xFF,
8.807703999999999,0,0xFF,
8.814095000000000,0,0xFF,
8.820491000000001,0,0xFF,
8.826893000000000,0,0xFF,
8.833284000000001,0,0xFF,
8.839680000000000,0,0xFF,
8.846081999999999,0,0xFF,
8.852473000000000,0,0xFF,
8.858873000000001,0,0xFF,
8.865271000000000,0,0xFF,
8.871662000000001,0,0xFF,
8.878059000000000,0,0xFF,
8.884465000000001,0,0xFF,
8.890851000000000,0,0xFF,
8.897247000000000,0,0xFF,
8.903650000000001,0,0xFF,
8.910040000000000,0,0xFF,
8.916437000000000,0,0xFF,
8.922839000000000,0,0xFF,
8.929247999999999,0,0xFF,
8.935625999999999,0,0xFF,
8.942028000000001,0,0xFF,
8.948418000000000,0,0xFF,
8.954815000000000,0,0xFF,
8.961216000000000,0,0xFF,
8.967613999999999,0,0xFF,
8.974004000000001,0,0xFF,
8.980399999999999,0,0xFF,
8.986802000000001,0,0xFF,
8.993202999999999,0,0xFF,
8.999590000000000,0,0xFF,
9.005991000000000,0,0xFF,
9.012382000000001,0,0xFF,
9.018777999999999,0,0xFF,
9.025180000000001,0,0xFF,
9.031571000000000,0,0xFF,
9.037967999999999,0,0xFF,
9.044373999999999,0,0xFF,
9.050763000000000,0,0xFF,
9.057156000000001,0,0xFF,
9.063559000000000,0,0xFF,
9.069970000000000,0,0xFF,
9.076345999999999,0,0xFF,
9.082748000000000,0,0xFF,
9.089138000000000,0,0xFF,
9.095534000000001,0,0xFF,
9.101937000000000,0,0xFF,
9.108328000000000,0,0xFF,
9.114724000000001,0,0xFD,
9.121124999999999,0,0xF9,
9.127523000000000,0,0x20,
9.133913000000000,0,0x00,
9.140309999999999,0,0x60,
9.146712000000001,0,0x00,
9.153102000000001,0,0x00,
9.159497999999999,0,0x00,
9.165900000000001,0,0x01,
9.172291000000000,0,0xFB,
9.178687000000000,0,0xFF,
9.185090000000001,0,0xFF,
9.191480000000000,0,0xFF,
9.197876000000001,0,0xFF,
9.204279000000000,0,0xFF,
9.210668999999999,0,0xFF,
9.217066000000001,0,0xFF,
9.223466999999999,0,0xFF,
9.229858000000000,0,0xFF,
9.236255000000000,0,0xFF,
9.242656000000000,0,0xFF,
9.249046000000000,0,0xFF,
9.255444000000001,0,0xFF,
9.261846000000000,0,0xFF,
9.268242000000001,0,0xFF,
9.274633000000000,0,0xFF,
9.281029999999999,0,0xFF,
9.287431000000000,0,0xFF,
9.293822000000000,0,0xFF,
9.300217999999999,0,0xFF,
9.306621000000000,0,0xFF,
9.313010999999999,0,0xFF,
9.319407000000000,0,0xFF,
9.325809000000000,0,0xFF,
9.332200000000000,0,0xFF,
9.338596000000001,0,0xFF,
9.344999000000000,0,0xFF,
9.351388999999999,0,0xFF,
9.357786000000001,0,0xFF,
9.364188000000000,0,0xFF,
9.370578000000000,0,0xFF,
9.376975000000000,0,0xFF,
9.383376999999999,0,0xFF,
9.389766000000000,0,0xFF,
9.396164000000001,0,0xFF,
9.402566000000000,0,0xFF,
9.408956000000000,0,0xFF,
9.415353000000000,0,0xFF,
9.421754999999999,0,0xFF,
9.428151000000000,0,0xFF,
9.434542000000000,0,0xFF,
9.440937999999999,0,0xFF,
9.447340000000001,0,0xFF,
9.453730999999999,0,0xFF,
9.460139000000000,0,0xFF,
9.466530000000001,0,0xFF,
9.472920000000000,0,0xFF,
9.479316000000001,0,0xFF,
9.485719000000000,0,0xFF,
9.492108999999999,0,0xFF,
9.498506000000001,0,0xFF,
9.504906999999999,0,0xFF,
9.511298000000000,0,0xFF,
9.517695000000000,0,0xFF,
9.524096999999999,0,0xFF,
9.530487000000001,0,0xFF,
9.536884000000001,0,0xFF,
9.543286000000000,0,0xFF,
9.549675000000001,0,0xFF,
9.556073000000000,0,0xFF,
9.562474999999999,0,0xFF,
9.568865000000001,0,0xFF,
9.575262000000000,0,0xFF,
9.581661000000000,0,0xFF,
9.588058999999999,0,0xFF,
9.594450999999999,0,0xFF,
9.600847000000000,0,0xBF,
9.607265000000000,0,0x24,
9.613640000000000,0,0x00,
9.620036000000001,0,0x08,
9.626436999999999,0,0x00,
9.632828999999999,0,0x00,
9.639226000000001,0,0x00,
9.645626000000000,0,0x00,
9.652018000000000,0,0x3F,
9.658415000000000,0,0x7F,
9.664820000000001,0,0xFF,
9.671224000000000,0,0xFF,
9.677603000000000,0,0xFF,
9.684005000000001,0,0xFF,
9.690397000000001,0,0xFF,
9.696792000000000,0,0xFF,
9.703193000000001,0,0xFF,
9.709585000000001,0,0xFF,
9.715980999999999,0,0xFF,
9.722382000000000,0,0xFF,
9.728774000000000,0,0xFF,
9.735170999999999,0,0xFF,
9.741571000000000,0,0xFF,
9.747968000000000,0,0xFF,
9.754360000000000,0,0xFF,
9.760756000000001,0,0xFF,
9.767156999999999,0,0xFF,
9.773548999999999,0,0xFF,
9.779946000000001,0,0xFF,
9.786346999999999,0,0xFF,
9.792738999999999,0,0xFF,
9.799135000000000,0,0xFF,
9.805536000000000,0,0xFF,
9.811927000000001,0,0xFF,
9.818324000000000,0,0xFF,
9.824730000000001,0,0xFF,
9.831116000000000,0,0xFF,
9.837513000000000,0,0xFF,
9.843915000000001,0,0xFF,
9.850305000000001,0,0xFF,
9.856700999999999,0,0xFF,
9.863104000000000,0,0xFF,
9.869505999999999,0,0xFF,
9.875890999999999,0,0xFF,
9.882293000000001,0,0xFF,
9.888681999999999,0,0xFF,
9.895080000000000,0,0xFF,
9.901481000000000,0,0xFF,
9.907878000000000,0,0xFF,
9.914269000000001,0,0xFF,
9.920666000000001,0,0xFF,
9.927066999999999,0,0xFF,
9.933458000000000,0,0xFF,
9.939855000000000,0,0xFF,
9.946256999999999,0,0xFF,
9.952647000000001,0,0xFF,
9.959044000000000,0,0xFF,
9.965446000000000,0,0xFF,
9.971836000000000,0,0xFF,
9.978232000000000,0,0xFF,
9.984635000000001,0,0xFF,
9.991026000000000,0,0xFF,
9.997420999999999,0,0xFF,
10.003824000000000,0,0xFF,
10.010214000000000,0,0xFF,
10.016610999999999,0,0xFF,
10.023013000000001,0,0xFF,
10.029403000000000,0,0xFF,
10.035800000000000,0,0xFF,
10.042202000000000,0,0xFF,
10.048598000000000,0,0xFF,
10.055002999999999,0,0xFF,
10.061385000000000,0,0xFF,
10.067788000000000,0,0xFF,
10.074187000000000,0,0xFF,
10.080581000000000,0,0xFF,
10.086976999999999,0,0xFF,
10.093367000000001,0,0xFF,
10.099762999999999,0,0xFF,
10.106166000000000,0,0xFF,
10.112557000000001,0,0xFF,
10.118952999999999,0,0xFF,
10.125354000000000,0,0xFF,
10.131745000000000,0,0xFF,
10.138140999999999,0,0xFF,
10.144543000000001,0,0xFF,
10.150933999999999,0,0xFF,
10.157330999999999,0,0xFF,
10.163733000000001,0,0xFF,
10.170123000000000,0,0xFF,
10.176520000000000,0,0xFF,
10.182922000000000,0,0xFF,
10.189311999999999,0,0xFF,
10.195709000000001,0,0xFF,
10.202111000000000,0,0xFF,
10.208527999999999,0,0xFF,
10.214898000000000,0,0xFF,
10.221294000000000,0,0xFF,
10.227696000000000,0,0xFF,
10.234087000000001,0,0xFF,
10.240482999999999,0,0xFF,
10.246886000000000,0,0xFF,
10.253276000000000,0,0xFF,
10.259672000000000,0,0xFF,
10.266074000000000,0,0xFF,
10.272465000000000,0,0xFF,
10.278860999999999,0,0xFF,
10.285264000000000,0,0xFF,
10.291655000000000,0,0xFF,
10.298050999999999,0,0xFF,
10.304451000000000,0,0xFF,
10.310843000000000,0,0xFF,
10.317240000000000,0,0xFF,
10.323642000000000,0,0xFF,
10.330031999999999,0,0xFF,
10.336429000000001,0,0xFF,
10.342831000000000,0,0xFF,
10.349220000000001,0,0xFF,
10.355618000000000,0,0xFF,
10.362019000000000,0,0xFF,
10.368416000000000,0,0xFF,
10.374807000000001,0,0xFF,
10.381202999999999,0,0xFF,
10.387605000000001,0,0xFF,
10.393997000000001,0,0xFF,
10.400392999999999,0,0xFF,
10.406794000000000,0,0xFF,
10.413187000000001,0,0xFF,
10.419582000000000,0,0xFF,
10.425983000000000,0,0xFF,
10.432373999999999,0,0xFF,
10.438770999999999,0,0xFF,
10.445176999999999,0,0xFF,
10.451563000000000,0,0xFF,
10.457959000000001,0,0xFF,
10.464361999999999,0,0xFF,
10.470751999999999,0,0xFF,
10.477148000000000,0,0xFF,
10.483551000000000,0,0xFF,
10.489940000000001,0,0xFF,
10.496338000000000,0,0xFF,
10.502744000000000,0,0xFF,
10.509130000000001,0,0xFF,
10.515527000000001,0,0xFF,
10.521944000000000,0,0xFF,
10.528342000000000,0,0xFF,
10.534717000000001,0,0xFF,
10.541112999999999,0,0xFF,
10.547514000000000,0,0xFF,
10.553905000000000,0,0xFF,
10.560302000000000,0,0xFF,
10.566701999999999,0,0xFF,
10.573095000000000,0,0xFF,
10.579491000000001,0,0xFF,
10.585891000000000,0,0xFF,
10.592302999999999,0,0xFF,
10.598680000000000,0,0xFF,
10.605085000000001,0,0xFF,
10.611471999999999,0,0xFF,
10.617872000000000,0,0xFF,
10.624276000000000,0,0xFF,
10.630661000000000,0,0xFF,
10.637058000000000,0,0xFF,
10.643458000000001,0,0xFF,
10.649850000000001,0,0xFF,
10.656247000000000,0,0xFF,
10.662647000000000,0,0xFF,
10.669039000000000,0,0xFF,
10.675435999999999,0,0xFF,
10.681835000000000,0,0xFF,
10.688233000000000,0,0xFF,
10.694625000000000,0,0xFF,
10.701021000000001,0,0xFF,
10.707421999999999,0,0xFF,
10.713813999999999,0,0xFF,
10.720211000000001,0,0xFF,
10.726611000000000,0,0xFF,
10.733003000000000,0,0xFF,
10.739400000000000,0,0xFF,
10.745799999999999,0,0xFF,
10.752198999999999,0,0xFF,
10.758588000000000,0,0xFF,
10.764989000000000,0,0xFF,
10.771381999999999,0,0xFF,
10.777778000000000,0,0xFF,
10.784178000000001,0,0xFF,
10.790570000000001,0,0xFF,
10.796967000000000,0,0xFF,
10.803369000000000,0,0xFF,
10.809759000000000,0,0xFF,
10.816155999999999,0,0xFF,
10.822558000000001,0,0xFF,
10.828954000000000,0,0xFF,
10.835345000000000,0,0xFF,
10.841742000000000,0,0xFF,
10.848144000000000,0,0xFF,
10.854554000000000,0,0xFF,
10.860931000000001,0,0xFF,
10.867333000000000,0,0xFF,
10.873723999999999,0,0xFF,
10.880119000000001,0,0xFF,
10.886521999999999,0,0xFF,
10.892912000000001,0,0xFF,
10.899309000000001,0,0xFF,
10.905711000000000,0,0xFF,
10.912101000000000,0,0xFF,
10.918498000000000,0,0xFF,
10.924899999999999,0,0xFF,
10.931291999999999,0,0xFF,
10.937688000000000,0,0xFF,
10.944089000000000,0,0xFF,
10.950479000000000,0,0xFF,
10.956875999999999,0,0xFF,
10.963278000000001,0,0xFF,
10.969668000000000,0,0xFF,
10.976065000000000,0,0xFF,
10.982467000000000,0,0xFF,
10.988863000000000,0,0xFF,
10.995253999999999,0,0xFF,
11.001650000000000,0,0xFF,
11.008051999999999,0,0xFF,
11.014450999999999,0,0xFF,
11.020839000000000,0,0xFF,
11.027241000000000,0,0xFF,
11.033633000000000,0,0xFF,
11.040028000000000,0,0xFF,
11.046431000000000,0,0xFF,
11.052821000000000,0,0xFF,
11.059217000000000,0,0xFF,
11.065619999999999,0,0xFF,
11.072010000000001,0,0xFF,
11.078407000000000,0,0xFF,
11.084809000000000,0,0xFF,
11.091199000000000,0,0xFF,
11.097595999999999,0,0xFF,
11.103998000000001,0,0xFF,
11.110386999999999,0,0xFF,
11.116785000000000,0,0xFF,
11.123187000000000,0,0xFF,
11.129576999999999,0,0xFF,
11.135973999999999,0,0xFF,
11.142377000000000,0,0xFF,
11.148773000000000,0,0xFF,
11.155163000000000,0,0xFF,
11.161559000000000,0,0xFF,
11.167961999999999,0,0xFF,
11.174352000000001,0,0xFF,
11.180749000000000,0,0xFF,
11.187150000000001,0,0xFF,
11.193541000000000,0,0xFF,
11.199938000000000,0,0xFF,
11.206340000000001,0,0xFF,
11.212731000000000,0,0xFF,
11.219130000000000,0,0xFF,
11.225533000000000,0,0xFF,
11.231920000000001,0,0xFF,
11.238315999999999,0,0xFF,
11.244718000000001,0,0xFF,
11.251108000000000,0,0xFF,
11.257505000000000,0,0xFF,
11.263907000000000,0,0xFF,
11.270296999999999,0,0xFF,
11.276694000000001,0,0xFF,
11.283096000000000,0,0xFF,
11.289486000000000,0,0xFF,
11.295883000000000,0,0xFF,
11.302284000000000,0,0xFF,
11.308681000000000,0,0xFF,
11.315072000000001,0,0xFF,
11.321469000000000,0,0xFF,
11.327870000000001,0,0xFF,
11.334261000000000,0,0xFF,
11.340657000000000,0,0xFF,
11.347059000000000,0,0xFF,
11.353450000000000,0,0xFF,
11.359845999999999,0,0xFF,
11.366250000000001,0,0xFF,
11.372640000000001,0,0xFF,
11.379035999999999,0,0xFF,
11.385443000000000,0,0xFF,
11.391828000000000,0,0xFF,
11.398225000000000,0,0xFF,
11.404627000000000,0,0xFF,
11.411019000000000,0,0xFF,
11.417414000000001,0,0xFF,
11.423816000000000,0,0xFF,
11.430206000000000,0,0xFF,
11.436603000000000,0,0xFF,
11.443004999999999,0,0xFF,
11.449395000000001,0,0xFF,
11.455812000000000,0,0xFF,
11.462192999999999,0,0xFF,
11.468590000000001,0,0xFF,
11.474981000000000,0,0xFF,
11.481377999999999,0,0xFF,
11.487787000000001,0,0xFF,
11.494170000000000,0,0xFF,
11.500567000000000,0,0xFF,
11.506968000000001,0,0xFF,
11.513358999999999,0,0xFF,
11.519755999999999,0,0xFF,
11.526158000000001,0,0xFF,
11.532548000000000,0,0xFF,
11.538944000000001,0,0xFF,
11.545347000000000,0,0xFF,
11.551741000000000,0,0xFF,
11.558134000000001,0,0xFF,
11.564536000000000,0,0xFF,
11.570925000000001,0,0xFF,
11.577323000000000,0,0xFF,
11.583723000000001,0,0xFF,
11.590115000000001,0,0xFF,
11.596512000000001,0,0xFF,
11.602912000000000,0,0xFF,
11.609309000000000,0,0xFF,
11.615701000000000,0,0xFF,
11.622097000000000,0,0xFF,
11.628498000000000,0,0xFF,
11.634890000000000,0,0xFF,
11.641285999999999,0,0xFF,
11.647686999999999,0,0xFF,
11.654078999999999,0,0xFF,
11.660475999999999,0,0xFF,
11.666876000000000,0,0xFF,
11.673268999999999,0,0xFF,
11.679665000000000,0,0xFF,
11.686066000000000,0,0xFF,
11.692456999999999,0,0xFF,
11.698854000000001,0,0xFF,
11.705254000000000,0,0xFF,
11.711646000000000,0,0xFF,
11.718043000000000,0,0xFF,
11.724443000000001,0,0xFF,
11.730835000000001,0,0xFF,
11.737232000000001,0,0xFF,
11.743633000000001,0,0xFF,
11.750024000000000,0,0xFF,
11.756421000000000,0,0xFF,
11.762822000000000,0,0xFF,
11.769218000000000,0,0xFF,
11.775610000000000,0,0xFF,
11.782006000000001,0,0xFF,
11.788408000000000,0,0xFF,
11.794798999999999,0,0xFF,
11.801195000000000,0,0xFF,
11.807598000000000,0,0xFF,
11.813988000000000,0,0xFF,
11.820384000000001,0,0xFF,
11.826786999999999,0,0xFF,
11.833176999999999,0,0xFF,
11.839574000000001,0,0xFF,
11.845976000000000,0,0xFF,
11.852366000000000,0,0xFF,
11.858763000000000,0,0xFF,
11.865164999999999,0,0xFF,
11.871555000000001,0,0xFF,
11.877952000000001,0,0xFF,
11.884354000000000,0,0xFF,
11.890744000000000,0,0xFF,
11.897144000000001,0,0xFF,
11.903543000000001,0,0xFF,
11.909933000000001,0,0xFF,
11.916330000000000,0,0xFF,
11.922731000000001,0,0xFF,
11.929128000000000,0,0xFF,
11.935518999999999,0,0xFF,
11.941915000000000,0,0xFF,
11.948323000000000,0,0xFF,
11.954708000000000,0,0xFF,
11.961105000000000,0,0xFF,
11.967506999999999,0,0xFF,
11.973898000000000,0,0xFF,
11.980294000000001,0,0xFF,
11.986696000000000,0,0xFF,
11.993086999999999,0,0xFF,
11.999483000000000,0,0xFF,
12.005889000000000,0,0xFF,
12.012275000000001,0,0xFF,
12.018672000000000,0,0xFF,
12.025074000000000,0,0xFF,
12.031464000000000,0,0xFF,
12.037860999999999,0,0xFF,
12.044263000000001,0,0xFF,
12.050653000000001,0,0xFF,
12.057050000000000,0,0xFF,
12.063452000000000,0,0xFF,
12.069842000000000,0,0xFF,
12.076240000000000,0,0xFF,
12.082640000000000,0,0xFF,
12.089036999999999,0,0xFF,
12.095428000000000,0,0xFF,
12.101824000000001,0,0xFF,
12.108226000000000,0,0xFF,
12.114635000000000,0,0xFF,
12.121013000000000,0,0xFF,
12.127414999999999,0,0xFF,
12.133806000000000,0,0xFF,
12.140202000000000,0,0xFF,
12.146604999999999,0,0xFF,
12.152995000000001,0,0xFF,
12.159390999999999,0,0xFF,
12.165806000000000,0,0xFF,
12.172185000000001,0,0xFF,
12.178580999999999,0,0xFF,
12.184983000000001,0,0xFF,
12.191374000000000,0,0xFF,
12.197770000000000,0,0xFF,
